v_supply	V(v_batteries)	V(vout_batt)	V(n001)	V(n002)	I(C1)	I(C2)	I(C_adc)	I(R1)	I(R2)	I(R_adc)	I(V1)	Ix(U1:In+)	Ix(U1:In-)	Ix(U1:OUT)	Ix(U1:V+)	Ix(U1:V-)
1.200000000000000e-01	1.200000e-01	-5.307692e-02	-6.900000e-01	-5.307692e-02	-1.200000e-18	1.200000e-20	-5.307692e-21	5.307692e-06	5.307692e-06	5.273560e-21	3.658334e+06	2.741430e-13	-1.910349e-05	2.447127e-05	-3.658334e+06	3.658334e+06
2.200000000000000e-01	2.200000e-01	-4.923077e-02	-6.400000e-01	-4.923077e-02	-2.200000e-18	2.200000e-20	-4.923077e-21	4.923077e-06	4.923077e-06	4.926615e-21	5.293476e+05	4.292742e-13	-1.386450e-05	1.878322e-05	-5.293476e+05	5.293476e+05
3.200000000000000e-01	3.200000e-01	-4.538462e-02	-5.900000e-01	-4.538462e-02	-3.200000e-18	3.200000e-20	-4.538462e-21	4.538461e-06	4.538461e-06	4.510281e-21	7.659468e+04	5.851659e-13	-8.993185e-06	1.353189e-05	-7.659468e+04	7.659468e+04
4.200000000000000e-01	4.200000e-01	-4.153846e-02	-5.400000e-01	-4.153846e-02	-4.200000e-18	4.200000e-20	-4.153846e-21	4.153846e-06	4.153846e-06	4.163337e-21	1.108297e+04	7.416371e-13	-4.778237e-06	8.932213e-06	-1.108297e+04	1.108297e+04
5.200000000000000e-01	5.200000e-01	-3.769231e-02	-4.900000e-01	-3.769231e-02	-5.200000e-18	5.200000e-20	-3.769231e-21	3.769231e-06	3.769231e-06	3.747003e-21	1.603666e+03	8.975023e-13	-1.769965e-06	5.539161e-06	-1.603666e+03	1.603666e+03
6.200000000000000e-01	6.200000e-01	-3.384615e-02	-4.400000e-01	-3.384615e-02	-6.200000e-18	6.200000e-20	-3.384615e-21	3.384615e-06	3.384615e-06	3.400058e-21	2.320446e+02	1.050641e-12	-4.193085e-07	3.803927e-06	-2.320446e+02	2.320446e+02
7.200000000000000e-01	7.200000e-01	-3.000000e-02	-3.900000e-01	-3.000000e-02	-7.200000e-18	7.200000e-20	-3.000000e-21	3.000000e-06	3.000000e-06	2.983724e-21	3.357598e+01	1.201441e-12	-1.005611e-07	3.100560e-06	-3.357598e+01	3.357597e+01
8.200000000000000e-01	8.200000e-01	-2.615384e-02	-3.400000e-01	-2.615384e-02	-8.200000e-18	8.200000e-20	-2.615385e-21	2.615384e-06	2.615384e-06	2.602085e-21	4.858294e+00	1.351573e-12	-4.892476e-08	2.664309e-06	-4.858294e+00	4.858285e+00
9.199999999999999e-01	9.200000e-01	-2.230768e-02	-2.899998e-01	-2.230768e-02	-9.200000e-18	9.200000e-20	-2.230768e-21	2.230768e-06	2.230768e-06	2.220446e-21	7.029458e-01	1.501592e-12	-4.131634e-08	2.272084e-06	-7.029458e-01	7.029378e-01
1.020000000000000e+00	1.020000e+00	-1.846146e-02	-2.399990e-01	-1.846146e-02	-1.020000e-17	1.020000e-19	-1.846146e-21	1.846146e-06	1.846146e-06	1.838807e-21	1.016793e-01	1.651594e-12	-4.021192e-08	1.886358e-06	-1.016793e-01	1.016713e-01
1.120000000000000e+00	1.120000e+00	-1.461485e-02	-1.899930e-01	-1.461485e-02	-1.120000e-17	1.120000e-19	-1.461485e-21	1.461485e-06	1.461485e-06	1.457168e-21	1.467536e-02	1.801589e-12	-4.005205e-08	1.501537e-06	-1.467536e-02	1.466743e-02
1.220000000000000e+00	1.220000e+00	-1.076551e-02	-1.399516e-01	-1.076551e-02	-1.220000e-17	1.220000e-19	-1.076551e-21	1.076551e-06	1.076551e-06	1.075529e-21	2.083388e-03	1.951547e-12	-4.002888e-08	1.116580e-06	-2.083388e-03	2.075460e-03
1.320000000000000e+00	1.320000e+00	-6.897372e-03	-8.966584e-02	-6.897372e-03	-1.320000e-17	1.320000e-19	-6.897372e-22	6.897372e-07	6.897372e-07	6.852158e-22	2.585761e-04	2.101262e-12	-4.002545e-08	7.297626e-07	-2.585761e-04	2.506473e-04
1.420000000000000e+00	1.420000e+00	-2.899508e-03	-3.769361e-02	-2.899508e-03	-1.420000e-17	1.420000e-19	-2.899508e-22	2.899508e-07	2.899508e-07	2.905662e-22	-8.141015e-06	2.249290e-12	-4.002450e-08	3.299753e-07	8.141013e-06	-1.606961e-05
1.520000000000000e+00	1.520000e+00	1.929917e-03	2.508893e-02	1.929917e-03	-1.520000e-17	1.520000e-19	1.929918e-22	-1.929917e-07	-1.929917e-07	-1.929880e-22	-4.862612e-05	2.386511e-12	-4.002181e-08	-1.529699e-07	4.862612e-05	-5.655349e-05
1.620000000000001e+00	1.620000e+00	8.906321e-03	1.157822e-01	8.906321e-03	-1.620000e-17	1.620000e-19	8.906321e-22	-8.906321e-07	-8.906321e-07	-8.847089e-22	-5.541949e-05	2.495828e-12	-4.001357e-08	-8.506182e-07	5.541949e-05	-6.334294e-05
1.720000000000001e+00	1.720000e+00	1.657181e-02	2.154335e-01	1.657181e-02	-1.720000e-17	1.720000e-19	1.657181e-21	-1.657181e-06	-1.657181e-06	-1.665334e-21	-5.882677e-05	2.596190e-12	-4.000354e-08	-1.617177e-06	5.882676e-05	-6.674543e-05
1.820000000000001e+00	1.820000e+00	2.426298e-02	3.154187e-01	2.426298e-02	-1.820000e-17	1.820000e-19	2.426298e-21	-2.426298e-06	-2.426298e-06	-2.428613e-21	-6.213057e-05	2.696219e-12	-3.999345e-08	-2.386298e-06	6.213057e-05	-7.004441e-05
1.920000000000001e+00	1.920000e+00	3.195473e-02	4.154115e-01	3.195473e-02	-1.920000e-17	1.920000e-19	3.195473e-21	-3.195473e-06	-3.195473e-06	-3.191891e-21	-6.543218e-05	2.796239e-12	-3.998335e-08	-3.155338e-06	6.543218e-05	-7.334121e-05
2.020000000000001e+00	2.020000e+00	3.964642e-02	5.154034e-01	3.964642e-02	-2.020000e-17	2.020000e-19	3.964642e-21	-3.964642e-06	-3.964642e-06	-3.955169e-21	-6.873375e-05	2.896261e-12	-3.997326e-08	-3.924668e-06	6.873374e-05	-7.663795e-05
2.120000000000001e+00	2.120000e+00	4.733814e-02	6.153959e-01	4.733814e-02	-2.120000e-17	2.120000e-19	4.733814e-21	-4.733814e-06	-4.733814e-06	-4.718448e-21	-7.203531e-05	2.996282e-12	-3.996316e-08	-4.693851e-06	7.203530e-05	-7.993469e-05
2.220000000000001e+00	2.220000e+00	5.502987e-02	7.153884e-01	5.502987e-02	-2.220000e-17	2.220000e-19	5.502987e-21	-5.502987e-06	-5.502987e-06	-5.481726e-21	-7.533687e-05	3.096303e-12	-3.995306e-08	-5.463034e-06	7.533686e-05	-8.323143e-05
2.320000000000001e+00	2.320000e+00	6.272162e-02	8.153811e-01	6.272162e-02	-2.320000e-17	2.320000e-19	6.272162e-21	-6.272162e-06	-6.272162e-06	-6.245004e-21	-7.863843e-05	3.196323e-12	-3.994297e-08	-6.232109e-06	7.863842e-05	-8.652818e-05
2.420000000000001e+00	2.420000e+00	7.041334e-02	9.153734e-01	7.041334e-02	-2.420000e-17	2.420000e-19	7.041334e-21	-7.041333e-06	-7.041333e-06	-7.077672e-21	-8.193999e-05	3.296345e-12	-3.993287e-08	-7.001358e-06	8.193998e-05	-8.982492e-05
2.520000000000001e+00	2.520000e+00	7.810505e-02	1.015366e+00	7.810505e-02	-2.520000e-17	2.520000e-19	7.810505e-21	-7.810505e-06	-7.810505e-06	-7.771561e-21	-8.524155e-05	3.396366e-12	-3.992278e-08	-7.770577e-06	8.524155e-05	-9.312166e-05
2.620000000000001e+00	2.620000e+00	8.579678e-02	1.115358e+00	8.579678e-02	-2.620000e-17	2.620000e-19	8.579678e-21	-8.579677e-06	-8.579677e-06	-8.604229e-21	-8.854311e-05	3.496387e-12	-3.991268e-08	-8.539765e-06	8.854311e-05	-9.641841e-05
2.720000000000002e+00	2.720000e+00	9.348851e-02	1.215351e+00	9.348851e-02	-2.720000e-17	2.720000e-19	9.348850e-21	-9.348851e-06	-9.348851e-06	-9.298118e-21	-9.184467e-05	3.596407e-12	-3.990325e-08	-9.308947e-06	9.184467e-05	-9.971514e-05
2.820000000000002e+00	2.820000e+00	1.011802e-01	1.315343e+00	1.011802e-01	-2.820000e-17	2.820000e-19	1.011802e-20	-1.011802e-05	-1.011802e-05	-1.013079e-20	-9.514623e-05	3.696429e-12	-3.989249e-08	-1.007813e-05	9.514623e-05	-1.030119e-04
2.920000000000002e+00	2.920000e+00	1.088720e-01	1.415335e+00	1.088720e-01	-2.920000e-17	2.920000e-19	1.088720e-20	-1.088720e-05	-1.088720e-05	-1.082467e-20	-9.844779e-05	3.796450e-12	-3.988239e-08	-1.084731e-05	9.844779e-05	-1.063086e-04
3.020000000000002e+00	3.020000e+00	1.165637e-01	1.515328e+00	1.165637e-01	-3.020000e-17	3.020000e-19	1.165637e-20	-1.165637e-05	-1.165637e-05	-1.165734e-20	-1.017493e-04	3.896471e-12	-3.987230e-08	-1.161649e-05	1.017493e-04	-1.096054e-04
3.120000000000002e+00	3.120000e+00	1.242554e-01	1.615320e+00	1.242554e-01	-3.120000e-17	3.120000e-19	1.242554e-20	-1.242554e-05	-1.242554e-05	-1.235123e-20	-1.050509e-04	3.996492e-12	-3.986220e-08	-1.238566e-05	1.050509e-04	-1.129021e-04
3.220000000000002e+00	3.220000e+00	1.319472e-01	1.715313e+00	1.319472e-01	-3.220000e-17	3.220000e-19	1.319472e-20	-1.319472e-05	-1.319472e-05	-1.332268e-20	-1.083525e-04	4.096512e-12	-3.985210e-08	-1.315467e-05	1.083525e-04	-1.161989e-04
3.320000000000002e+00	3.320000e+00	1.396389e-01	1.815305e+00	1.396389e-01	-3.320000e-17	3.320000e-19	1.396389e-20	-1.396389e-05	-1.396389e-05	-1.387779e-20	-1.116540e-04	4.196534e-12	-3.984201e-08	-1.392404e-05	1.116540e-04	-1.194956e-04
3.420000000000002e+00	3.420000e+00	1.473306e-01	1.915298e+00	1.473306e-01	-3.420000e-17	3.420000e-19	1.473306e-20	-1.473306e-05	-1.473306e-05	-1.471046e-20	-1.149556e-04	4.296555e-12	-3.983191e-08	-1.469322e-05	1.149556e-04	-1.227923e-04
3.520000000000002e+00	3.520000e+00	1.550223e-01	2.015290e+00	1.550223e-01	-3.520000e-17	3.520000e-19	1.550223e-20	-1.550223e-05	-1.550223e-05	-1.554312e-20	-1.182572e-04	4.396576e-12	-3.982182e-08	-1.546233e-05	1.182572e-04	-1.260891e-04
3.620000000000002e+00	3.620000e+00	1.627140e-01	2.115282e+00	1.627140e-01	-3.620000e-17	3.620000e-19	1.627140e-20	-1.627140e-05	-1.627140e-05	-1.637579e-20	-1.215587e-04	4.496597e-12	-3.981172e-08	-1.623159e-05	1.215587e-04	-1.293858e-04
3.720000000000002e+00	3.720000e+00	1.704058e-01	2.215275e+00	1.704058e-01	-3.720000e-17	3.720000e-19	1.704057e-20	-1.704058e-05	-1.704058e-05	-1.693090e-20	-1.248603e-04	4.596618e-12	-3.980163e-08	-1.700077e-05	1.248603e-04	-1.326826e-04
3.820000000000003e+00	3.820000e+00	1.780975e-01	2.315268e+00	1.780975e-01	-3.820000e-17	3.820000e-19	1.780975e-20	-1.780975e-05	-1.780975e-05	-1.776357e-20	-1.281618e-04	4.696638e-12	-3.979153e-08	-1.776989e-05	1.281618e-04	-1.359793e-04
3.920000000000003e+00	3.920000e+00	1.857892e-01	2.415260e+00	1.857892e-01	-3.920000e-17	3.920000e-19	1.857892e-20	-1.857892e-05	-1.857892e-05	-1.859624e-20	-1.314634e-04	4.796660e-12	-3.978143e-08	-1.853914e-05	1.314634e-04	-1.392761e-04
4.020000000000002e+00	4.020000e+00	1.934809e-01	2.515252e+00	1.934809e-01	-4.020000e-17	4.020000e-19	1.934809e-20	-1.934809e-05	-1.934809e-05	-1.942890e-20	-1.347650e-04	4.896681e-12	-3.977134e-08	-1.930832e-05	1.347650e-04	-1.425728e-04
4.120000000000002e+00	4.120000e+00	2.011726e-01	2.615245e+00	2.011726e-01	-4.120000e-17	4.120000e-19	2.011727e-20	-2.011727e-05	-2.011727e-05	-1.998401e-20	-1.380665e-04	4.996702e-12	-3.976124e-08	-2.007749e-05	1.380665e-04	-1.458695e-04
4.220000000000002e+00	4.220000e+00	2.088644e-01	2.715237e+00	2.088644e-01	-4.220000e-17	4.220000e-19	2.088644e-20	-2.088644e-05	-2.088644e-05	-2.081668e-20	-1.413681e-04	5.096723e-12	-3.975115e-08	-2.084664e-05	1.413681e-04	-1.491663e-04
4.320000000000001e+00	4.320000e+00	2.165561e-01	2.815230e+00	2.165561e-01	-4.320000e-17	4.320000e-19	2.165561e-20	-2.165561e-05	-2.165561e-05	-2.164935e-20	-1.446696e-04	5.196744e-12	-3.974105e-08	-2.161575e-05	1.446696e-04	-1.524630e-04
4.420000000000001e+00	4.420000e+00	2.242479e-01	2.915223e+00	2.242479e-01	-4.420000e-17	4.420000e-19	2.242479e-20	-2.242479e-05	-2.242479e-05	-2.248202e-20	-1.479712e-04	5.296764e-12	-3.973095e-08	-2.238479e-05	1.479712e-04	-1.557598e-04
4.520000000000000e+00	4.520000e+00	2.319395e-01	3.015214e+00	2.319395e-01	-4.520000e-17	4.520000e-19	2.319396e-20	-2.319395e-05	-2.319395e-05	-2.303713e-20	-1.512728e-04	5.396786e-12	-3.972086e-08	-2.315423e-05	1.512728e-04	-1.590565e-04
4.620000000000000e+00	4.620000e+00	2.396313e-01	3.115206e+00	2.396313e-01	-4.620000e-17	4.620000e-19	2.396313e-20	-2.396313e-05	-2.396313e-05	-2.386979e-20	-1.545743e-04	5.496807e-12	-3.971076e-08	-2.392342e-05	1.545743e-04	-1.623533e-04
4.720000000000000e+00	4.720000e+00	2.473230e-01	3.215199e+00	2.473230e-01	-4.720000e-17	4.720000e-19	2.473230e-20	-2.473230e-05	-2.473230e-05	-2.470246e-20	-1.578759e-04	5.596829e-12	-3.970067e-08	-2.469260e-05	1.578759e-04	-1.656500e-04
4.819999999999999e+00	4.820000e+00	2.550147e-01	3.315191e+00	2.550147e-01	-4.820000e-17	4.820000e-19	2.550147e-20	-2.550147e-05	-2.550147e-05	-2.553513e-20	-1.611774e-04	5.696850e-12	-3.969057e-08	-2.546178e-05	1.611774e-04	-1.689467e-04
4.919999999999999e+00	4.920000e+00	2.627064e-01	3.415184e+00	2.627064e-01	-4.920000e-17	4.920000e-19	2.627064e-20	-2.627064e-05	-2.627064e-05	-2.609024e-20	-1.644790e-04	5.796870e-12	-3.968047e-08	-2.623096e-05	1.644790e-04	-1.722435e-04
5.019999999999999e+00	5.020000e+00	2.703982e-01	3.515176e+00	2.703982e-01	-5.020000e-17	5.020000e-19	2.703982e-20	-2.703982e-05	-2.703982e-05	-2.720046e-20	-1.677806e-04	5.896891e-12	-3.967038e-08	-2.700015e-05	1.677806e-04	-1.755402e-04
5.119999999999998e+00	5.120000e+00	2.780899e-01	3.615169e+00	2.780899e-01	-5.120000e-17	5.120000e-19	2.780899e-20	-2.780899e-05	-2.780899e-05	-2.775558e-20	-1.710821e-04	5.996913e-12	-3.966028e-08	-2.776933e-05	1.710821e-04	-1.788370e-04
5.219999999999998e+00	5.220000e+00	2.857816e-01	3.715161e+00	2.857816e-01	-5.220000e-17	5.220000e-19	2.857816e-20	-2.857816e-05	-2.857816e-05	-2.831069e-20	-1.743837e-04	6.096934e-12	-3.965019e-08	-2.853851e-05	1.743837e-04	-1.821337e-04
5.319999999999998e+00	5.320000e+00	2.934733e-01	3.815153e+00	2.934733e-01	-5.320000e-17	5.320000e-19	2.934733e-20	-2.934733e-05	-2.934733e-05	-2.942091e-20	-1.776852e-04	6.196955e-12	-3.964009e-08	-2.930769e-05	1.776852e-04	-1.854305e-04
5.419999999999997e+00	5.420000e+00	3.011650e-01	3.915146e+00	3.011650e-01	-5.420000e-17	5.420000e-19	3.011651e-20	-3.011651e-05	-3.011651e-05	-2.997602e-20	-1.809868e-04	6.296976e-12	-3.963000e-08	-3.007687e-05	1.809868e-04	-1.887272e-04
5.519999999999997e+00	5.520000e+00	3.088568e-01	4.015138e+00	3.088568e-01	-5.520000e-17	5.520000e-19	3.088568e-20	-3.088568e-05	-3.088568e-05	-3.108625e-20	-1.842884e-04	6.396997e-12	-3.961990e-08	-3.084605e-05	1.842884e-04	-1.920239e-04
5.619999999999997e+00	5.620000e+00	3.165485e-01	4.115130e+00	3.165485e-01	-5.620000e-17	5.620000e-19	3.165485e-20	-3.165485e-05	-3.165485e-05	-3.164135e-20	-1.875899e-04	6.497018e-12	-3.960980e-08	-3.161524e-05	1.875899e-04	-1.953207e-04
5.719999999999996e+00	5.720000e+00	3.242402e-01	4.215123e+00	3.242402e-01	-5.720000e-17	5.720000e-19	3.242402e-20	-3.242402e-05	-3.242402e-05	-3.219647e-20	-1.908915e-04	6.597039e-12	-3.959970e-08	-3.238442e-05	1.908915e-04	-1.986174e-04
5.819999999999996e+00	5.820000e+00	3.319319e-01	4.315115e+00	3.319319e-01	-5.820000e-17	5.820000e-19	3.319319e-20	-3.319319e-05	-3.319319e-05	-3.330669e-20	-1.941931e-04	6.697060e-12	-3.958961e-08	-3.315360e-05	1.941931e-04	-2.019142e-04
5.919999999999995e+00	5.920000e+00	3.396237e-01	4.415107e+00	3.396237e-01	-5.920000e-17	5.920000e-19	3.396237e-20	-3.396237e-05	-3.396237e-05	-3.386180e-20	-1.974946e-04	6.797082e-12	-3.957951e-08	-3.392278e-05	1.974946e-04	-2.052109e-04
6.019999999999995e+00	6.020000e+00	3.473154e-01	4.515100e+00	3.473154e-01	-6.020000e-17	6.020000e-19	3.473154e-20	-3.473154e-05	-3.473154e-05	-3.497203e-20	-2.007962e-04	6.897103e-12	-3.956942e-08	-3.469196e-05	2.007962e-04	-2.085077e-04
6.119999999999995e+00	6.120000e+00	3.550071e-01	4.615092e+00	3.550071e-01	-6.120000e-17	6.120000e-19	3.550071e-20	-3.550071e-05	-3.550071e-05	-3.552714e-20	-2.040977e-04	6.997124e-12	-3.955932e-08	-3.546114e-05	2.040977e-04	-2.118044e-04
6.219999999999994e+00	6.220000e+00	3.626988e-01	4.715085e+00	3.626988e-01	-6.220000e-17	6.220000e-19	3.626988e-20	-3.626988e-05	-3.626988e-05	-3.608225e-20	-2.073993e-04	7.097145e-12	-3.954923e-08	-3.623033e-05	2.073993e-04	-2.151011e-04
6.319999999999994e+00	6.320000e+00	3.703905e-01	4.815077e+00	3.703905e-01	-6.320000e-17	6.320000e-19	3.703905e-20	-3.703905e-05	-3.703905e-05	-3.719247e-20	-2.107009e-04	7.197166e-12	-3.953913e-08	-3.699951e-05	2.107008e-04	-2.183979e-04
6.419999999999994e+00	6.420000e+00	3.780822e-01	4.915069e+00	3.780822e-01	-6.420000e-17	6.420000e-19	3.780823e-20	-3.780823e-05	-3.780823e-05	-3.774758e-20	-2.140024e-04	7.297187e-12	-3.952903e-08	-3.776869e-05	2.140024e-04	-2.216946e-04
6.519999999999993e+00	6.520000e+00	3.857740e-01	5.015062e+00	3.857740e-01	-6.520000e-17	6.520000e-19	3.857740e-20	-3.857740e-05	-3.857740e-05	-3.830270e-20	-2.173040e-04	7.397209e-12	-3.951894e-08	-3.853787e-05	2.173040e-04	-2.249914e-04
6.619999999999993e+00	6.620000e+00	3.934657e-01	5.115054e+00	3.934657e-01	-6.620000e-17	6.620000e-19	3.934657e-20	-3.934657e-05	-3.934657e-05	-3.941292e-20	-2.206055e-04	7.497229e-12	-3.950884e-08	-3.930705e-05	2.206055e-04	-2.282881e-04
6.719999999999993e+00	6.720000e+00	4.011574e-01	5.215046e+00	4.011574e-01	-6.720000e-17	6.720000e-19	4.011574e-20	-4.011574e-05	-4.011574e-05	-3.996803e-20	-2.239071e-04	7.597251e-12	-3.949875e-08	-4.007623e-05	2.239071e-04	-2.315849e-04
6.819999999999992e+00	6.820000e+00	4.088491e-01	5.315039e+00	4.088491e-01	-6.820000e-17	6.820000e-19	4.088491e-20	-4.088491e-05	-4.088491e-05	-4.107825e-20	-2.272087e-04	7.697272e-12	-3.948865e-08	-4.084541e-05	2.272087e-04	-2.348816e-04
6.919999999999992e+00	6.920000e+00	4.165409e-01	5.415031e+00	4.165409e-01	-6.920000e-17	6.920000e-19	4.165409e-20	-4.165409e-05	-4.165409e-05	-4.163336e-20	-2.305102e-04	7.797293e-12	-3.947855e-08	-4.161459e-05	2.305102e-04	-2.381783e-04
7.019999999999992e+00	7.020000e+00	4.242326e-01	5.515023e+00	4.242326e-01	-7.020000e-17	7.020000e-19	4.242326e-20	-4.242326e-05	-4.242326e-05	-4.218848e-20	-2.338118e-04	7.897314e-12	-3.946846e-08	-4.238377e-05	2.338118e-04	-2.414751e-04
7.119999999999991e+00	7.120000e+00	4.319243e-01	5.615016e+00	4.319243e-01	-7.120000e-17	7.120000e-19	4.319243e-20	-4.319243e-05	-4.319243e-05	-4.329870e-20	-2.371133e-04	7.997335e-12	-3.945836e-08	-4.315296e-05	2.371133e-04	-2.447718e-04
7.219999999999991e+00	7.220000e+00	4.396160e-01	5.715008e+00	4.396160e-01	-7.220000e-17	7.220000e-19	4.396160e-20	-4.396160e-05	-4.396160e-05	-4.385381e-20	-2.404149e-04	8.097356e-12	-3.944827e-08	-4.392214e-05	2.404149e-04	-2.480686e-04
7.319999999999991e+00	7.320000e+00	4.473077e-01	5.815001e+00	4.473077e-01	-7.320000e-17	7.320000e-19	4.473077e-20	-4.473077e-05	-4.473077e-05	-4.496403e-20	-2.437165e-04	8.197378e-12	-3.943817e-08	-4.469132e-05	2.437165e-04	-2.513653e-04
7.419999999999990e+00	7.420000e+00	4.549994e-01	5.914993e+00	4.549994e-01	-7.420000e-17	7.420000e-19	4.549995e-20	-4.549995e-05	-4.549995e-05	-4.551914e-20	-2.470180e-04	8.297398e-12	-3.942807e-08	-4.546050e-05	2.470180e-04	-2.546620e-04
7.519999999999990e+00	7.520000e+00	4.626912e-01	6.014985e+00	4.626912e-01	-7.520000e-17	7.520000e-19	4.626912e-20	-4.626912e-05	-4.626912e-05	-4.607425e-20	-2.503196e-04	8.397420e-12	-3.941798e-08	-4.622968e-05	2.503196e-04	-2.579588e-04
7.619999999999989e+00	7.620000e+00	4.703829e-01	6.114977e+00	4.703829e-01	-7.620000e-17	7.620000e-19	4.703829e-20	-4.703829e-05	-4.703829e-05	-4.718448e-20	-2.536211e-04	8.497441e-12	-3.940788e-08	-4.699886e-05	2.536211e-04	-2.612555e-04
7.719999999999989e+00	7.720000e+00	4.780746e-01	6.214970e+00	4.780746e-01	-7.720000e-17	7.720000e-19	4.780746e-20	-4.780746e-05	-4.780746e-05	-4.773959e-20	-2.569227e-04	8.597462e-12	-3.939779e-08	-4.776804e-05	2.569227e-04	-2.645523e-04
7.819999999999989e+00	7.820000e+00	4.857663e-01	6.314962e+00	4.857663e-01	-7.820000e-17	7.820000e-19	4.857663e-20	-4.857663e-05	-4.857663e-05	-4.829470e-20	-2.602243e-04	8.697484e-12	-3.938769e-08	-4.853723e-05	2.602243e-04	-2.678490e-04
7.919999999999988e+00	7.920000e+00	4.934580e-01	6.414955e+00	4.934580e-01	-7.920000e-17	7.920000e-19	4.934580e-20	-4.934580e-05	-4.934580e-05	-4.940493e-20	-2.635258e-04	8.797504e-12	-3.937760e-08	-4.930641e-05	2.635258e-04	-2.711457e-04
8.019999999999989e+00	8.020000e+00	5.011498e-01	6.514947e+00	5.011498e-01	-8.020000e-17	8.020000e-19	5.011498e-20	-5.011497e-05	-5.011497e-05	-4.996004e-20	-2.668274e-04	8.897526e-12	-3.936750e-08	-5.007559e-05	2.668274e-04	-2.744425e-04
8.119999999999989e+00	8.120000e+00	5.088415e-01	6.614939e+00	5.088415e-01	-8.120000e-17	8.120000e-19	5.088415e-20	-5.088415e-05	-5.088415e-05	-5.107026e-20	-2.701289e-04	8.997547e-12	-3.935740e-08	-5.084477e-05	2.701289e-04	-2.777393e-04
8.219999999999988e+00	8.220000e+00	5.165332e-01	6.714931e+00	5.165332e-01	-8.220000e-17	8.220000e-19	5.165332e-20	-5.165332e-05	-5.165332e-05	-5.107026e-20	-2.734305e-04	9.097568e-12	-3.934731e-08	-5.161395e-05	2.734305e-04	-2.810360e-04
8.319999999999988e+00	8.320000e+00	5.242249e-01	6.814924e+00	5.242249e-01	-8.320000e-17	8.320000e-19	5.242249e-20	-5.242249e-05	-5.242249e-05	-5.218048e-20	-2.767321e-04	9.197590e-12	-3.933721e-08	-5.238313e-05	2.767321e-04	-2.843327e-04
