i_load	V(v1)	V(v2)	V(v_batteries)	V(vout_5v)	V(n001)	V(n002)	V(n003)	I(C1)	I(C2)	I(C_adc)	I(Im1)	I(R1)	I(R2)	I(R3)	I(R4)	I(R5v)	I(R_adc)	I(V1)	I(V_regulator)	Ix(U1:In+)	Ix(U1:In-)	Ix(U1:OUT)	Ix(U1:V+)	Ix(U1:V-)
0.000000000000000e+00	5.000000e+00	5.000000e+00	1.440000e+01	9.510640e-02	4.867625e+00	9.510640e-02	4.865067e+00	-1.440000e-16	1.440000e-18	9.510641e-21	0.000000e+00	-1.323747e-05	-1.325700e-05	-1.349326e-05	-1.351408e-05	-1.323747e-05	-9.436896e-21	-4.851308e-04	-2.673073e-05	-2.081572e-08	-1.952300e-08	1.325700e-05	4.851308e-04	-4.849373e-04
1.000000000000000e-01	4.999000e+00	5.000000e+00	1.440000e+01	1.043632e-01	4.866904e+00	1.043632e-01	4.865066e+00	-1.440000e-16	1.440000e-18	1.043632e-20	1.000000e-01	-1.320958e-05	-1.322928e-05	-1.349344e-05	-1.351407e-05	-1.000132e-01	-1.040834e-20	-4.851308e-04	-1.000267e-01	-2.063404e-08	-1.970474e-08	1.322928e-05	4.851308e-04	-4.850096e-04
2.000000000000000e-01	4.998000e+00	5.000000e+00	1.440000e+01	1.167369e-01	4.866267e+00	1.167369e-01	4.865064e+00	-1.440000e-16	1.440000e-18	1.167369e-20	2.000000e-01	-1.317327e-05	-1.319314e-05	-1.349359e-05	-1.351407e-05	-2.000132e-01	-1.165734e-20	-4.851308e-04	-2.000267e-01	-2.047350e-08	-1.986535e-08	1.319314e-05	4.851308e-04	-4.850735e-04
3.000000000000000e-01	4.997000e+00	5.000000e+00	1.440000e+01	1.339903e-01	4.865762e+00	1.339903e-01	4.865063e+00	-1.440000e-16	1.440000e-18	1.339903e-20	3.000000e-01	-1.312382e-05	-1.314381e-05	-1.349372e-05	-1.351406e-05	-3.000131e-01	-1.332268e-20	-4.851308e-04	-3.000266e-01	-2.034610e-08	-1.999280e-08	1.314381e-05	4.851308e-04	-4.851242e-04
4.000000000000000e-01	4.996000e+00	5.000000e+00	1.440000e+01	1.580255e-01	4.865439e+00	1.580255e-01	4.865062e+00	-1.440000e-16	1.440000e-18	1.580255e-20	4.000000e-01	-1.305607e-05	-1.307615e-05	-1.349380e-05	-1.351406e-05	-4.000131e-01	-1.582068e-20	-4.851308e-04	-4.000266e-01	-2.026478e-08	-2.007415e-08	1.307615e-05	4.851308e-04	-4.851565e-04
5.000000000000000e-01	4.995000e+00	5.000000e+00	1.440000e+01	1.886050e-01	4.865293e+00	1.886050e-01	4.865062e+00	-1.440000e-16	1.440000e-18	1.886050e-20	5.000000e-01	-1.297069e-05	-1.299080e-05	-1.349383e-05	-1.351406e-05	-5.000130e-01	-1.887379e-20	-4.851308e-04	-5.000265e-01	-2.022794e-08	-2.011101e-08	1.299080e-05	4.851308e-04	-4.851712e-04
6.000000000000000e-01	4.994000e+00	5.000000e+00	1.440000e+01	2.228374e-01	4.865245e+00	2.228374e-01	4.865062e+00	-1.440000e-16	1.440000e-18	2.228374e-20	6.000000e-01	-1.287545e-05	-1.289558e-05	-1.349384e-05	-1.351406e-05	-6.000129e-01	-2.220446e-20	-4.851308e-04	-6.000264e-01	-2.021592e-08	-2.012303e-08	1.289558e-05	4.851308e-04	-4.851759e-04
7.000000000000000e-01	4.993000e+00	5.000000e+00	1.440000e+01	2.583489e-01	4.865232e+00	2.583489e-01	4.865062e+00	-1.440000e-16	1.440000e-18	2.583489e-20	7.000000e-01	-1.277677e-05	-1.279690e-05	-1.349385e-05	-1.351406e-05	-7.000128e-01	-2.609024e-20	-4.851308e-04	-7.000263e-01	-2.021260e-08	-2.012635e-08	1.279690e-05	4.851308e-04	-4.851772e-04
7.999999999999999e-01	4.992000e+00	5.000000e+00	1.440000e+01	2.942145e-01	4.865229e+00	2.942145e-01	4.865061e+00	-1.440000e-16	1.440000e-18	2.942146e-20	8.000000e-01	-1.267713e-05	-1.269726e-05	-1.349385e-05	-1.351406e-05	-8.000126e-01	-2.942091e-20	-4.851308e-04	-8.000262e-01	-2.021169e-08	-2.012726e-08	1.269726e-05	4.851308e-04	-4.851775e-04
8.999999999999999e-01	4.991000e+00	5.000000e+00	1.440000e+01	3.301709e-01	4.865227e+00	3.301709e-01	4.865061e+00	-1.440000e-16	1.440000e-18	3.301709e-20	9.000000e-01	-1.257725e-05	-1.259738e-05	-1.349385e-05	-1.351406e-05	-9.000126e-01	-3.275158e-20	-4.851308e-04	-9.000261e-01	-2.021140e-08	-2.012756e-08	1.259738e-05	4.851308e-04	-4.851776e-04
9.999999999999999e-01	4.990000e+00	5.000000e+00	1.440000e+01	3.661500e-01	4.865227e+00	3.661500e-01	4.865061e+00	-1.440000e-16	1.440000e-18	3.661500e-20	1.000000e+00	-1.247731e-05	-1.249744e-05	-1.349385e-05	-1.351406e-05	-1.000013e+00	-3.663736e-20	-4.851308e-04	-1.000026e+00	-2.021125e-08	-2.012770e-08	1.249744e-05	4.851308e-04	-4.851776e-04
1.100000000000000e+00	4.989000e+00	5.000000e+00	1.440000e+01	4.021348e-01	4.865226e+00	4.021348e-01	4.865061e+00	-1.440000e-16	1.440000e-18	4.021348e-20	1.100000e+00	-1.237735e-05	-1.239748e-05	-1.349385e-05	-1.351406e-05	-1.100012e+00	-3.996803e-20	-4.851308e-04	-1.100026e+00	-2.021115e-08	-2.012780e-08	1.239748e-05	4.851308e-04	-4.851776e-04
1.200000000000000e+00	4.988000e+00	5.000000e+00	1.440000e+01	4.381209e-01	4.865226e+00	4.381209e-01	4.865061e+00	-1.440000e-16	1.440000e-18	4.381209e-20	1.200000e+00	-1.227739e-05	-1.229751e-05	-1.349385e-05	-1.351406e-05	-1.200012e+00	-4.385381e-20	-4.851308e-04	-1.200026e+00	-2.021106e-08	-2.012790e-08	1.229751e-05	4.851308e-04	-4.851776e-04
1.300000000000000e+00	4.987000e+00	5.000000e+00	1.440000e+01	4.741074e-01	4.865226e+00	4.741074e-01	4.865061e+00	-1.440000e-16	1.440000e-18	4.741075e-20	1.300000e+00	-1.217742e-05	-1.219755e-05	-1.349385e-05	-1.351406e-05	-1.300012e+00	-4.718448e-20	-4.851308e-04	-1.300026e+00	-2.021097e-08	-2.012799e-08	1.219755e-05	4.851308e-04	-4.851776e-04
1.400000000000000e+00	4.986000e+00	5.000000e+00	1.440000e+01	5.100940e-01	4.865225e+00	5.100940e-01	4.865061e+00	-1.440000e-16	1.440000e-18	5.100940e-20	1.400000e+00	-1.207746e-05	-1.209759e-05	-1.349385e-05	-1.351406e-05	-1.400012e+00	-5.107026e-20	-4.851308e-04	-1.400026e+00	-2.021087e-08	-2.012808e-08	1.209759e-05	4.851308e-04	-4.851776e-04
1.500000000000000e+00	4.985000e+00	5.000000e+00	1.440000e+01	5.460806e-01	4.865225e+00	5.460806e-01	4.865061e+00	-1.440000e-16	1.440000e-18	5.460807e-20	1.500000e+00	-1.197749e-05	-1.199762e-05	-1.349385e-05	-1.351406e-05	-1.500012e+00	-5.440093e-20	-4.851308e-04	-1.500026e+00	-2.021078e-08	-2.012817e-08	1.199762e-05	4.851308e-04	-4.851776e-04
1.600000000000000e+00	4.984000e+00	5.000000e+00	1.440000e+01	5.820673e-01	4.865224e+00	5.820673e-01	4.865061e+00	-1.440000e-16	1.440000e-18	5.820673e-20	1.600000e+00	-1.187753e-05	-1.189766e-05	-1.349385e-05	-1.351406e-05	-1.600012e+00	-5.773160e-20	-4.851308e-04	-1.600025e+00	-2.021069e-08	-2.012826e-08	1.189766e-05	4.851308e-04	-4.851776e-04
1.700000000000000e+00	4.983000e+00	5.000000e+00	1.440000e+01	6.180539e-01	4.865224e+00	6.180539e-01	4.865061e+00	-1.440000e-16	1.440000e-18	6.180539e-20	1.700000e+00	-1.177757e-05	-1.179770e-05	-1.349385e-05	-1.351406e-05	-1.700012e+00	-6.217249e-20	-4.851308e-04	-1.700025e+00	-2.021060e-08	-2.012835e-08	1.179770e-05	4.851308e-04	-4.851776e-04
1.800000000000000e+00	4.982000e+00	5.000000e+00	1.440000e+01	6.540405e-01	4.865224e+00	6.540405e-01	4.865061e+00	-1.440000e-16	1.440000e-18	6.540405e-20	1.800000e+00	-1.167760e-05	-1.169773e-05	-1.349385e-05	-1.351406e-05	-1.800012e+00	-6.550316e-20	-4.851308e-04	-1.800025e+00	-2.021051e-08	-2.012844e-08	1.169773e-05	4.851308e-04	-4.851776e-04
1.900000000000001e+00	4.981000e+00	5.000000e+00	1.440000e+01	6.900272e-01	4.865223e+00	6.900272e-01	4.865061e+00	-1.440000e-16	1.440000e-18	6.900272e-20	1.900000e+00	-1.157764e-05	-1.159777e-05	-1.349385e-05	-1.351406e-05	-1.900012e+00	-6.883383e-20	-4.851308e-04	-1.900025e+00	-2.021042e-08	-2.012853e-08	1.159777e-05	4.851308e-04	-4.851776e-04
2.000000000000000e+00	4.980000e+00	5.000000e+00	1.440000e+01	7.260138e-01	4.865223e+00	7.260138e-01	4.865061e+00	-1.440000e-16	1.440000e-18	7.260138e-20	2.000000e+00	-1.147767e-05	-1.149780e-05	-1.349385e-05	-1.351406e-05	-2.000011e+00	-7.216450e-20	-4.851308e-04	-2.000025e+00	-2.021033e-08	-2.012862e-08	1.149780e-05	4.851308e-04	-4.851776e-04
2.100000000000001e+00	4.979000e+00	5.000000e+00	1.440000e+01	7.620004e-01	4.865223e+00	7.620004e-01	4.865061e+00	-1.440000e-16	1.440000e-18	7.620004e-20	2.100000e+00	-1.137771e-05	-1.139784e-05	-1.349385e-05	-1.351406e-05	-2.100011e+00	-7.660539e-20	-4.851308e-04	-2.100025e+00	-2.021024e-08	-2.012871e-08	1.139784e-05	4.851308e-04	-4.851776e-04
2.200000000000001e+00	4.978000e+00	5.000000e+00	1.440000e+01	7.979870e-01	4.865222e+00	7.979870e-01	4.865061e+00	-1.440000e-16	1.440000e-18	7.979870e-20	2.200000e+00	-1.127775e-05	-1.129788e-05	-1.349385e-05	-1.351406e-05	-2.200011e+00	-7.993606e-20	-4.851308e-04	-2.200025e+00	-2.021015e-08	-2.012881e-08	1.129788e-05	4.851308e-04	-4.851776e-04
2.300000000000001e+00	4.977000e+00	5.000000e+00	1.440000e+01	8.339737e-01	4.865222e+00	8.339737e-01	4.865061e+00	-1.440000e-16	1.440000e-18	8.339737e-20	2.300000e+00	-1.117778e-05	-1.119791e-05	-1.349385e-05	-1.351406e-05	-2.300011e+00	-8.326673e-20	-4.851308e-04	-2.300025e+00	-2.021006e-08	-2.012890e-08	1.119791e-05	4.851308e-04	-4.851776e-04
2.400000000000001e+00	4.976000e+00	5.000000e+00	1.440000e+01	8.699603e-01	4.865222e+00	8.699603e-01	4.865061e+00	-1.440000e-16	1.440000e-18	8.699603e-20	2.400000e+00	-1.107782e-05	-1.109795e-05	-1.349385e-05	-1.351406e-05	-2.400011e+00	-8.659740e-20	-4.851308e-04	-2.400025e+00	-2.020997e-08	-2.012899e-08	1.109795e-05	4.851308e-04	-4.851776e-04
2.500000000000001e+00	4.975000e+00	5.000000e+00	1.440000e+01	9.059469e-01	4.865222e+00	9.059469e-01	4.865061e+00	-1.440000e-16	1.440000e-18	9.059469e-20	2.500000e+00	-1.097786e-05	-1.099798e-05	-1.349385e-05	-1.351406e-05	-2.500011e+00	-9.103829e-20	-4.851308e-04	-2.500025e+00	-2.020988e-08	-2.012908e-08	1.099798e-05	4.851308e-04	-4.851776e-04
2.600000000000001e+00	4.974000e+00	5.000000e+00	1.440000e+01	9.419336e-01	4.865221e+00	9.419336e-01	4.865061e+00	-1.440000e-16	1.440000e-18	9.419336e-20	2.600000e+00	-1.087789e-05	-1.089802e-05	-1.349385e-05	-1.351406e-05	-2.600011e+00	-9.436896e-20	-4.851308e-04	-2.600024e+00	-2.020979e-08	-2.012917e-08	1.089802e-05	4.851308e-04	-4.851776e-04
2.700000000000001e+00	4.973000e+00	5.000000e+00	1.440000e+01	9.779202e-01	4.865221e+00	9.779202e-01	4.865061e+00	-1.440000e-16	1.440000e-18	9.779202e-20	2.700000e+00	-1.077793e-05	-1.079806e-05	-1.349385e-05	-1.351406e-05	-2.700011e+00	-9.769963e-20	-4.851308e-04	-2.700024e+00	-2.020970e-08	-2.012926e-08	1.079806e-05	4.851308e-04	-4.851776e-04
2.800000000000001e+00	4.972000e+00	5.000000e+00	1.440000e+01	1.013907e+00	4.865220e+00	1.013907e+00	4.865061e+00	-1.440000e-16	1.440000e-18	1.013907e-19	2.800000e+00	-1.067796e-05	-1.069809e-05	-1.349385e-05	-1.351406e-05	-2.800011e+00	-1.021405e-19	-4.851308e-04	-2.800024e+00	-2.020961e-08	-2.012935e-08	1.069809e-05	4.851308e-04	-4.851776e-04
2.900000000000001e+00	4.971000e+00	5.000000e+00	1.440000e+01	1.049893e+00	4.865220e+00	1.049893e+00	4.865061e+00	-1.440000e-16	1.440000e-18	1.049893e-19	2.900000e+00	-1.057800e-05	-1.059813e-05	-1.349385e-05	-1.351406e-05	-2.900011e+00	-1.043610e-19	-4.851308e-04	-2.900024e+00	-2.020952e-08	-2.012944e-08	1.059813e-05	4.851308e-04	-4.851776e-04
3.000000000000000e+00	4.970000e+00	5.000000e+00	1.440000e+01	1.085880e+00	4.865220e+00	1.085880e+00	4.865061e+00	-1.440000e-16	1.440000e-18	1.085880e-19	3.000000e+00	-1.047804e-05	-1.049817e-05	-1.349385e-05	-1.351406e-05	-3.000010e+00	-1.088019e-19	-4.851308e-04	-3.000024e+00	-2.020943e-08	-2.012953e-08	1.049817e-05	4.851308e-04	-4.851776e-04
