v_supply	V(v_batteries)	V(vout_reg)	V(n001)	V(n002)	V(n003)	I(C1)	I(C2)	I(C_adc1)	I(R1)	I(R2)	I(R3)	I(V1)	I(V_regulator)	Ix(U1:In+)	Ix(U1:In-)	Ix(U1:OUT)	Ix(U1:V+)	Ix(U1:V-)
0.000000000000000e+00	1.440000e+01	6.573150e-03	3.023649e-02	6.573150e-03	0.000000e+00	1.440000e-18	-1.440000e-16	6.573151e-22	-6.573151e-07	-6.573151e-07	-6.591949e-22	-4.851308e-04	2.818727e-08	-2.818727e-08	-1.313159e-08	-6.441834e-07	4.851308e-04	-4.824696e-04
1.000000000000000e-01	1.440000e+01	2.222084e-02	1.022159e-01	2.222084e-02	1.000000e-01	1.440000e-18	-1.440000e-16	2.222084e-21	-2.222084e-06	-2.222084e-06	-2.220446e-21	-4.851308e-04	2.121908e-08	-2.121908e-08	-2.008209e-08	-2.202003e-06	4.851308e-04	-4.852332e-04
2.000000000000000e-01	1.440000e+01	4.357857e-02	2.004614e-01	4.357857e-02	2.000000e-01	1.440000e-18	-1.440000e-16	4.357857e-21	-4.357857e-06	-4.357857e-06	-4.371503e-21	-4.851308e-04	2.075891e-08	-2.075891e-08	-2.052219e-08	-4.337335e-06	4.851308e-04	-4.854067e-04
3.000000000000000e-01	1.440000e+01	6.530778e-02	3.004158e-01	6.530778e-02	3.000000e-01	1.440000e-18	-1.440000e-16	6.530778e-21	-6.530778e-06	-6.530778e-06	-6.522560e-21	-4.851308e-04	2.073709e-08	-2.073709e-08	-2.052383e-08	-6.510254e-06	4.851308e-04	-4.854057e-04
4.000000000000000e-01	1.440000e+01	8.704537e-02	4.004087e-01	8.704537e-02	4.000000e-01	1.440000e-18	-1.440000e-16	8.704537e-21	-8.704536e-06	-8.704536e-06	-8.743007e-21	-4.851308e-04	2.072511e-08	-2.072517e-08	-2.051560e-08	-8.684021e-06	4.851308e-04	-4.854008e-04
5.000000000000000e-01	1.440000e+01	1.087831e-01	5.004023e-01	1.087831e-01	5.000000e-01	1.440000e-18	-1.440000e-16	1.087831e-20	-1.087831e-05	-1.087831e-05	-1.082467e-20	-4.851308e-04	2.071335e-08	-2.071335e-08	-2.050717e-08	-1.085780e-05	4.851308e-04	-4.853958e-04
6.000000000000000e-01	1.440000e+01	1.305209e-01	6.003959e-01	1.305209e-01	6.000000e-01	1.440000e-18	-1.440000e-16	1.305208e-20	-1.305208e-05	-1.305208e-05	-1.304512e-20	-4.851308e-04	2.070158e-08	-2.070159e-08	-2.049874e-08	-1.303159e-05	4.851308e-04	-4.853908e-04
7.000000000000000e-01	1.440000e+01	1.522586e-01	7.003895e-01	1.522586e-01	7.000000e-01	1.440000e-18	-1.440000e-16	1.522586e-20	-1.522586e-05	-1.522586e-05	-1.526557e-20	-4.851308e-04	2.068982e-08	-2.068983e-08	-2.049031e-08	-1.520537e-05	4.851308e-04	-4.853858e-04
7.999999999999999e-01	1.440000e+01	1.739963e-01	8.003831e-01	1.739963e-01	8.000000e-01	1.440000e-18	-1.440000e-16	1.739963e-20	-1.739963e-05	-1.739963e-05	-1.748601e-20	-4.851308e-04	2.067806e-08	-2.067806e-08	-2.048187e-08	-1.737915e-05	4.851308e-04	-4.853808e-04
8.999999999999999e-01	1.440000e+01	1.957342e-01	9.003775e-01	1.957342e-01	9.000000e-01	1.440000e-18	-1.440000e-16	1.957342e-20	-1.957342e-05	-1.957342e-05	-1.942890e-20	-4.851308e-04	2.066629e-08	-2.066690e-08	-2.047344e-08	-1.955295e-05	4.851308e-04	-4.853758e-04
9.999999999999999e-01	1.440000e+01	2.174718e-01	1.000370e+00	2.174718e-01	1.000000e+00	1.440000e-18	-1.440000e-16	2.174718e-20	-2.174718e-05	-2.174718e-05	-2.164935e-20	-4.851308e-04	2.065453e-08	-2.065458e-08	-2.046505e-08	-2.172672e-05	4.851308e-04	-4.853708e-04
1.100000000000000e+00	1.440000e+01	2.392095e-01	1.100364e+00	2.392095e-01	1.100000e+00	1.440000e-18	-1.440000e-16	2.392096e-20	-2.392095e-05	-2.392095e-05	-2.386979e-20	-4.851308e-04	2.064277e-08	-2.064281e-08	-2.045662e-08	-2.390050e-05	4.851308e-04	-4.853658e-04
1.200000000000000e+00	1.440000e+01	2.609473e-01	1.200358e+00	2.609473e-01	1.200000e+00	1.440000e-18	-1.440000e-16	2.609473e-20	-2.609473e-05	-2.609473e-05	-2.609024e-20	-4.851308e-04	2.063100e-08	-2.063105e-08	-2.044814e-08	-2.607428e-05	4.851308e-04	-4.853608e-04
1.300000000000000e+00	1.440000e+01	2.826851e-01	1.300351e+00	2.826851e-01	1.300000e+00	1.440000e-18	-1.440000e-16	2.826851e-20	-2.826851e-05	-2.826851e-05	-2.831069e-20	-4.851308e-04	2.061924e-08	-2.061939e-08	-2.043971e-08	-2.824807e-05	4.851308e-04	-4.853558e-04
1.400000000000000e+00	1.440000e+01	3.044304e-01	1.400380e+00	3.044304e-01	1.400000e+00	1.440000e-18	-1.440000e-16	3.044304e-20	-3.044304e-05	-3.044304e-05	-3.053113e-20	-4.851308e-04	2.060747e-08	-2.064490e-08	-2.044065e-08	-3.042261e-05	4.851308e-04	-4.853508e-04
1.500000000000000e+00	1.440000e+01	3.261605e-01	1.500338e+00	3.261605e-01	1.500000e+00	1.440000e-18	-1.440000e-16	3.261605e-20	-3.261605e-05	-3.261605e-05	-3.275158e-20	-4.851308e-04	2.059571e-08	-2.059575e-08	-2.042285e-08	-3.259563e-05	4.851308e-04	-4.853458e-04
1.600000000000000e+00	1.440000e+01	3.478982e-01	1.600332e+00	3.478982e-01	1.600000e+00	1.440000e-18	-1.440000e-16	3.478982e-20	-3.478982e-05	-3.478982e-05	-3.497203e-20	-4.851308e-04	2.058395e-08	-2.058395e-08	-2.041441e-08	-3.476941e-05	4.851308e-04	-4.853408e-04
1.700000000000000e+00	1.440000e+01	3.696366e-01	1.700328e+00	3.696366e-01	1.700000e+00	1.440000e-18	-1.440000e-16	3.696366e-20	-3.696365e-05	-3.696365e-05	-3.719247e-20	-4.851308e-04	2.057219e-08	-2.057434e-08	-2.040598e-08	-3.694325e-05	4.851308e-04	-4.853358e-04
1.800000000000000e+00	1.440000e+01	3.913737e-01	1.800319e+00	3.913737e-01	1.800000e+00	1.440000e-18	-1.440000e-16	3.913737e-20	-3.913737e-05	-3.913737e-05	-3.885780e-20	-4.851308e-04	2.056042e-08	-2.056042e-08	-2.039755e-08	-3.911697e-05	4.851308e-04	-4.853308e-04
1.900000000000001e+00	1.440000e+01	4.131099e-01	1.900305e+00	4.131099e-01	1.900000e+00	1.440000e-18	-1.440000e-16	4.131099e-20	-4.131098e-05	-4.131098e-05	-4.107825e-20	-4.851308e-04	2.054866e-08	-2.055723e-08	-2.040337e-08	-4.129060e-05	4.851308e-04	-4.853258e-04
2.000000000000000e+00	1.440000e+01	4.348491e-01	2.000306e+00	4.348491e-01	2.000000e+00	1.440000e-18	-1.440000e-16	4.348491e-20	-4.348491e-05	-4.348491e-05	-4.329870e-20	-4.851308e-04	2.053690e-08	-2.053690e-08	-2.038080e-08	-4.346453e-05	4.851308e-04	-4.853208e-04
2.100000000000001e+00	1.440000e+01	4.565869e-01	2.100300e+00	4.565869e-01	2.100000e+00	1.440000e-18	-1.440000e-16	4.565869e-20	-4.565869e-05	-4.565869e-05	-4.551914e-20	-4.851308e-04	2.052514e-08	-2.052514e-08	-2.037225e-08	-4.563832e-05	4.851308e-04	-4.853158e-04
2.200000000000001e+00	1.440000e+01	4.783247e-01	2.200293e+00	4.783247e-01	2.200000e+00	1.440000e-18	-1.440000e-16	4.783247e-20	-4.783247e-05	-4.783247e-05	-4.773959e-20	-4.851308e-04	2.051337e-08	-2.051338e-08	-2.036382e-08	-4.781210e-05	4.851308e-04	-4.853108e-04
2.300000000000001e+00	1.440000e+01	5.000623e-01	2.300287e+00	5.000623e-01	2.300000e+00	1.440000e-18	-1.440000e-16	5.000624e-20	-5.000624e-05	-5.000624e-05	-4.996004e-20	-4.851308e-04	2.050161e-08	-2.050161e-08	-2.035538e-08	-4.998588e-05	4.851308e-04	-4.853058e-04
2.400000000000001e+00	1.440000e+01	5.218001e-01	2.400280e+00	5.218001e-01	2.400000e+00	1.440000e-18	-1.440000e-16	5.218001e-20	-5.218001e-05	-5.218001e-05	-5.218048e-20	-4.851308e-04	2.048985e-08	-2.048985e-08	-2.034695e-08	-5.215966e-05	4.851308e-04	-4.853008e-04
2.500000000000001e+00	1.440000e+01	5.435379e-01	2.500274e+00	5.435379e-01	2.500000e+00	1.440000e-18	-1.440000e-16	5.435379e-20	-5.435378e-05	-5.435378e-05	-5.440093e-20	-4.851308e-04	2.047808e-08	-2.047813e-08	-2.033852e-08	-5.433345e-05	4.851308e-04	-4.852958e-04
2.600000000000001e+00	1.440000e+01	5.652755e-01	2.600267e+00	5.652755e-01	2.600000e+00	1.440000e-18	-1.440000e-16	5.652755e-20	-5.652755e-05	-5.652755e-05	-5.662137e-20	-4.851308e-04	2.046632e-08	-2.046641e-08	-2.033019e-08	-5.650723e-05	4.851308e-04	-4.852908e-04
2.700000000000001e+00	1.440000e+01	5.870133e-01	2.700261e+00	5.870133e-01	2.700000e+00	1.440000e-18	-1.440000e-16	5.870132e-20	-5.870133e-05	-5.870133e-05	-5.884182e-20	-4.851308e-04	2.045456e-08	-2.045464e-08	-2.032176e-08	-5.868101e-05	4.851308e-04	-4.852859e-04
2.800000000000001e+00	1.440000e+01	6.087510e-01	2.800255e+00	6.087510e-01	2.800000e+00	1.440000e-18	-1.440000e-16	6.087510e-20	-6.087510e-05	-6.087510e-05	-6.106227e-20	-4.851308e-04	2.044279e-08	-2.044279e-08	-2.031322e-08	-6.085479e-05	4.851308e-04	-4.852808e-04
2.900000000000001e+00	1.440000e+01	6.304888e-01	2.900248e+00	6.304888e-01	2.900000e+00	1.440000e-18	-1.440000e-16	6.304888e-20	-6.304887e-05	-6.304887e-05	-6.328271e-20	-4.851308e-04	2.043103e-08	-2.043103e-08	-2.030479e-08	-6.302856e-05	4.851308e-04	-4.852758e-04
3.000000000000001e+00	1.440000e+01	6.522264e-01	3.000242e+00	6.522264e-01	3.000000e+00	1.440000e-18	-1.440000e-16	6.522265e-20	-6.522264e-05	-6.522264e-05	-6.550316e-20	-4.851308e-04	2.041927e-08	-2.041927e-08	-2.029635e-08	-6.520235e-05	4.851308e-04	-4.852708e-04
3.100000000000001e+00	1.440000e+01	6.739638e-01	3.100234e+00	6.739638e-01	3.100000e+00	1.440000e-18	-1.440000e-16	6.739639e-20	-6.739639e-05	-6.739639e-05	-6.772360e-20	-4.851308e-04	2.040750e-08	-2.040750e-08	-2.028905e-08	-6.737610e-05	4.851308e-04	-4.852659e-04
3.200000000000002e+00	1.440000e+01	6.957019e-01	3.200229e+00	6.957019e-01	3.200000e+00	1.440000e-18	-1.440000e-16	6.957019e-20	-6.957019e-05	-6.957019e-05	-6.994405e-20	-4.851308e-04	2.039574e-08	-2.039574e-08	-2.027949e-08	-6.954991e-05	4.851308e-04	-4.852609e-04
3.300000000000002e+00	1.440000e+01	7.174399e-01	3.300224e+00	7.174399e-01	3.300000e+00	1.440000e-18	-1.440000e-16	7.174399e-20	-7.174399e-05	-7.174399e-05	-7.216450e-20	-4.851308e-04	2.038398e-08	-2.038498e-08	-2.027106e-08	-7.172372e-05	4.851308e-04	-4.852558e-04
3.400000000000002e+00	1.440000e+01	7.391773e-01	3.400216e+00	7.391773e-01	3.400000e+00	1.440000e-18	-1.440000e-16	7.391773e-20	-7.391773e-05	-7.391773e-05	-7.438494e-20	-4.851308e-04	2.037221e-08	-2.037221e-08	-2.026262e-08	-7.389747e-05	4.851308e-04	-4.852508e-04
3.500000000000002e+00	1.440000e+01	7.609150e-01	3.500209e+00	7.609150e-01	3.500000e+00	1.440000e-18	-1.440000e-16	7.609150e-20	-7.609151e-05	-7.609151e-05	-7.549517e-20	-4.851308e-04	2.036045e-08	-2.036045e-08	-2.025419e-08	-7.607125e-05	4.851308e-04	-4.852459e-04
3.600000000000002e+00	1.440000e+01	7.826528e-01	3.600203e+00	7.826528e-01	3.600000e+00	1.440000e-18	-1.440000e-16	7.826528e-20	-7.826528e-05	-7.826528e-05	-7.771561e-20	-4.851308e-04	2.034869e-08	-2.034869e-08	-2.024576e-08	-7.824503e-05	4.851308e-04	-4.852409e-04
3.700000000000002e+00	1.440000e+01	8.043905e-01	3.700196e+00	8.043905e-01	3.700000e+00	1.440000e-18	-1.440000e-16	8.043905e-20	-8.043905e-05	-8.043905e-05	-7.993606e-20	-4.851308e-04	2.033693e-08	-2.033693e-08	-2.023733e-08	-8.041881e-05	4.851308e-04	-4.852359e-04
3.800000000000002e+00	1.440000e+01	8.261282e-01	3.800190e+00	8.261282e-01	3.800000e+00	1.440000e-18	-1.440000e-16	8.261282e-20	-8.261282e-05	-8.261282e-05	-8.215650e-20	-4.851308e-04	2.032516e-08	-2.032516e-08	-2.022889e-08	-8.259259e-05	4.851308e-04	-4.852308e-04
3.900000000000002e+00	1.440000e+01	8.478659e-01	3.900183e+00	8.478659e-01	3.900000e+00	1.440000e-18	-1.440000e-16	8.478659e-20	-8.478660e-05	-8.478660e-05	-8.437695e-20	-4.851308e-04	2.031340e-08	-2.031340e-08	-2.022046e-08	-8.476638e-05	4.851308e-04	-4.852259e-04
4.000000000000002e+00	1.440000e+01	8.696036e-01	4.000177e+00	8.696036e-01	4.000000e+00	1.440000e-18	-1.440000e-16	8.696037e-20	-8.696036e-05	-8.696036e-05	-8.659740e-20	-4.851308e-04	2.030164e-08	-2.030164e-08	-2.021203e-08	-8.694016e-05	4.851308e-04	-4.852209e-04
4.100000000000001e+00	1.440000e+01	8.913414e-01	4.100170e+00	8.913414e-01	4.100000e+00	1.440000e-18	-1.440000e-16	8.913413e-20	-8.913413e-05	-8.913413e-05	-8.881784e-20	-4.851308e-04	2.028987e-08	-2.028987e-08	-2.020360e-08	-8.911394e-05	4.851308e-04	-4.852159e-04
4.200000000000001e+00	1.440000e+01	9.130791e-01	4.200164e+00	9.130791e-01	4.200000e+00	1.440000e-18	-1.440000e-16	9.130791e-20	-9.130791e-05	-9.130791e-05	-9.103829e-20	-4.851308e-04	2.027811e-08	-2.027811e-08	-2.019516e-08	-9.128771e-05	4.851308e-04	-4.852109e-04
4.300000000000001e+00	1.440000e+01	9.348168e-01	4.300157e+00	9.348168e-01	4.300000e+00	1.440000e-18	-1.440000e-16	9.348168e-20	-9.348168e-05	-9.348168e-05	-9.325873e-20	-4.851308e-04	2.026635e-08	-2.026635e-08	-2.018673e-08	-9.346149e-05	4.851308e-04	-4.852059e-04
4.400000000000000e+00	1.440000e+01	9.565545e-01	4.400151e+00	9.565545e-01	4.400000e+00	1.440000e-18	-1.440000e-16	9.565545e-20	-9.565545e-05	-9.565545e-05	-9.547918e-20	-4.851308e-04	2.025458e-08	-2.025458e-08	-2.017830e-08	-9.563527e-05	4.851308e-04	-4.852009e-04
4.500000000000000e+00	1.440000e+01	9.782922e-01	4.500144e+00	9.782922e-01	4.500000e+00	1.440000e-18	-1.440000e-16	9.782922e-20	-9.782922e-05	-9.782922e-05	-9.769963e-20	-4.851308e-04	2.024282e-08	-2.024282e-08	-2.016986e-08	-9.780905e-05	4.851308e-04	-4.851959e-04
4.600000000000000e+00	1.440000e+01	1.000030e+00	4.600138e+00	1.000030e+00	4.600000e+00	1.440000e-18	-1.440000e-16	1.000030e-19	-1.000030e-04	-1.000030e-04	-9.992007e-20	-4.851308e-04	2.023106e-08	-2.023106e-08	-2.016143e-08	-9.998283e-05	4.851308e-04	-4.851909e-04
4.699999999999999e+00	1.440000e+01	1.021768e+00	4.700131e+00	1.021768e+00	4.700000e+00	1.440000e-18	-1.440000e-16	1.021768e-19	-1.021768e-04	-1.021768e-04	-1.021405e-19	-4.851308e-04	2.021929e-08	-2.021929e-08	-2.015300e-08	-1.021566e-04	4.851308e-04	-4.851859e-04
4.799999999999999e+00	1.440000e+01	1.043505e+00	4.800125e+00	1.043505e+00	4.800000e+00	1.440000e-18	-1.440000e-16	1.043505e-19	-1.043505e-04	-1.043505e-04	-1.043610e-19	-4.851308e-04	2.020753e-08	-2.020753e-08	-2.014457e-08	-1.043304e-04	4.851308e-04	-4.851809e-04
4.899999999999999e+00	1.440000e+01	1.065243e+00	4.900118e+00	1.065243e+00	4.900000e+00	1.440000e-18	-1.440000e-16	1.065243e-19	-1.065243e-04	-1.065243e-04	-1.065814e-19	-4.851308e-04	2.019577e-08	-2.019577e-08	-2.013613e-08	-1.065042e-04	4.851308e-04	-4.851759e-04
4.999999999999998e+00	1.440000e+01	1.086981e+00	5.000112e+00	1.086981e+00	5.000000e+00	1.440000e-18	-1.440000e-16	1.086981e-19	-1.086981e-04	-1.086981e-04	-1.088019e-19	-4.851308e-04	2.018401e-08	-2.018401e-08	-2.012770e-08	-1.086779e-04	4.851308e-04	-4.851709e-04
5.099999999999998e+00	1.440000e+01	1.108718e+00	5.100105e+00	1.108718e+00	5.100000e+00	1.440000e-18	-1.440000e-16	1.108719e-19	-1.108718e-04	-1.108718e-04	-1.110223e-19	-4.851308e-04	2.017224e-08	-2.017224e-08	-2.011927e-08	-1.108517e-04	4.851308e-04	-4.851659e-04
5.199999999999998e+00	1.440000e+01	1.130456e+00	5.200099e+00	1.130456e+00	5.200000e+00	1.440000e-18	-1.440000e-16	1.130456e-19	-1.130456e-04	-1.130456e-04	-1.132427e-19	-4.851308e-04	2.016048e-08	-2.016048e-08	-2.011084e-08	-1.130255e-04	4.851308e-04	-4.851609e-04
5.299999999999997e+00	1.440000e+01	1.152194e+00	5.300092e+00	1.152194e+00	5.300000e+00	1.440000e-18	-1.440000e-16	1.152194e-19	-1.152194e-04	-1.152194e-04	-1.154632e-19	-4.851308e-04	2.014872e-08	-2.014872e-08	-2.010240e-08	-1.151993e-04	4.851308e-04	-4.851559e-04
5.399999999999997e+00	1.440000e+01	1.173932e+00	5.400085e+00	1.173932e+00	5.400000e+00	1.440000e-18	-1.440000e-16	1.173931e-19	-1.173932e-04	-1.173932e-04	-1.176836e-19	-4.851308e-04	2.013695e-08	-2.013695e-08	-2.009397e-08	-1.173731e-04	4.851308e-04	-4.851509e-04
5.499999999999996e+00	1.440000e+01	1.195669e+00	5.500079e+00	1.195669e+00	5.500000e+00	1.440000e-18	-1.440000e-16	1.195669e-19	-1.195669e-04	-1.195669e-04	-1.199041e-19	-4.851308e-04	2.012519e-08	-2.012519e-08	-2.008554e-08	-1.195468e-04	4.851308e-04	-4.851459e-04
5.599999999999996e+00	1.440000e+01	1.217407e+00	5.600072e+00	1.217407e+00	5.600000e+00	1.440000e-18	-1.440000e-16	1.217407e-19	-1.217407e-04	-1.217407e-04	-1.221245e-19	-4.851308e-04	2.011343e-08	-2.011343e-08	-2.007711e-08	-1.217206e-04	4.851308e-04	-4.851409e-04
5.699999999999996e+00	1.440000e+01	1.239145e+00	5.700066e+00	1.239145e+00	5.700000e+00	1.440000e-18	-1.440000e-16	1.239145e-19	-1.239145e-04	-1.239145e-04	-1.243450e-19	-4.851308e-04	2.010166e-08	-2.010166e-08	-2.006867e-08	-1.238944e-04	4.851308e-04	-4.851359e-04
5.799999999999995e+00	1.440000e+01	1.260882e+00	5.800059e+00	1.260882e+00	5.800000e+00	1.440000e-18	-1.440000e-16	1.260882e-19	-1.260882e-04	-1.260882e-04	-1.265654e-19	-4.851308e-04	2.008990e-08	-2.008990e-08	-2.006024e-08	-1.260682e-04	4.851308e-04	-4.851309e-04
5.899999999999995e+00	1.440000e+01	1.282620e+00	5.900052e+00	1.282620e+00	5.900000e+00	1.440000e-18	-1.440000e-16	1.282620e-19	-1.282620e-04	-1.282620e-04	-1.287859e-19	-4.851308e-04	2.007814e-08	-2.007814e-08	-2.005181e-08	-1.282420e-04	4.851308e-04	-4.851259e-04
5.999999999999995e+00	1.440000e+01	1.304358e+00	6.000046e+00	1.304358e+00	6.000000e+00	1.440000e-18	-1.440000e-16	1.304358e-19	-1.304358e-04	-1.304358e-04	-1.310063e-19	-4.851308e-04	2.006637e-08	-2.006637e-08	-2.004337e-08	-1.304157e-04	4.851308e-04	-4.851209e-04
