v_supply	V(v_batteries)	V(vout_batt)	V(n001)	V(n002)	I(C1)	I(C2)	I(C_adc)	I(R1)	I(R2)	I(R_adc)	I(V1)	Ix(U1:In+)	Ix(U1:In-)	Ix(U1:OUT)	Ix(U1:V+)	Ix(U1:V-)
0.000000000000000e+00	0.000000e+00	-6.221434e-11	-8.087865e-10	-6.221434e-11	0.000000e+00	0.000000e+00	-6.221435e-30	6.221435e-15	6.221435e-15	6.203854e-30	-3.450074e-04	9.957984e-13	9.957984e-13	-9.895769e-13	3.450074e-04	3.337103e+11
1.000000000000000e-01	1.000000e-01	3.859556e-03	5.017423e-02	3.859556e-03	-1.000000e-18	1.000000e-20	3.859556e-22	-3.859556e-07	-3.859556e-07	-3.859760e-22	-3.863363e-04	1.215418e-12	9.965342e-13	-3.859566e-07	3.863363e-04	2.337103e+11
2.000000000000000e-01	2.000000e-01	7.740139e-03	1.006218e-01	7.740139e-03	-2.000000e-18	2.000000e-20	7.740139e-22	-7.740139e-07	-7.740139e-07	-7.719520e-22	-4.144480e-04	1.415867e-12	9.983056e-13	-7.740149e-07	4.144480e-04	1.337102e+11
3.000000000000000e-01	3.000000e-01	1.176886e-02	1.529952e-01	1.176886e-02	-3.000000e-18	3.000000e-20	1.176886e-21	-1.176886e-06	-1.176886e-06	-1.179612e-21	-4.293064e-04	1.615914e-12	1.007793e-12	-1.176887e-06	4.293064e-04	3.371025e+10
4.000000000000000e-01	4.000000e-01	1.831106e-02	2.380438e-01	1.831106e-02	-4.000000e-18	4.000000e-20	1.831106e-21	-1.831106e-06	-1.831106e-06	-1.838807e-21	-4.326784e-04	1.815953e-12	1.148010e-12	-1.831108e-06	4.326784e-04	7.334257e+08
5.000000000000000e-01	5.000000e-01	2.365394e-02	3.075012e-01	2.365394e-02	-5.000000e-18	5.000000e-20	2.365394e-21	-2.365394e-06	-2.365394e-06	-2.359224e-21	-4.348856e-04	2.015991e-12	1.225814e-12	-2.365395e-06	4.348856e-04	1.535576e+07
6.000000000000000e-01	6.000000e-01	2.420826e-02	3.147074e-01	2.420826e-02	-6.000000e-18	6.000000e-20	2.420826e-21	-2.420826e-06	-2.420826e-06	-2.428613e-21	-4.366139e-04	2.216030e-12	1.054628e-12	-2.420827e-06	4.366139e-04	3.215042e+05
7.000000000000000e-01	7.000000e-01	2.476321e-02	3.219218e-01	2.476321e-02	-7.000000e-18	7.000000e-20	2.476321e-21	-2.476321e-06	-2.476321e-06	-2.463307e-21	-4.383422e-04	2.416068e-12	8.834858e-13	-2.476322e-06	4.383422e-04	6.731346e+03
7.999999999999999e-01	8.000000e-01	6.045398e-02	7.859018e-01	6.045398e-02	-8.000000e-18	8.000000e-20	6.045398e-21	-6.045399e-06	-6.045399e-06	-6.036838e-21	-4.356741e-04	2.616108e-12	2.551002e-12	-6.045401e-06	4.356741e-04	1.409355e+02
8.999999999999999e-01	9.000000e-01	6.819773e-02	8.865705e-01	6.819773e-02	-9.000000e-18	9.000000e-20	6.819773e-21	-6.819773e-06	-6.819773e-06	-6.800116e-21	-4.376142e-04	2.816146e-12	2.753981e-12	-6.819776e-06	4.376142e-04	2.951551e+00
9.999999999999999e-01	1.000000e+00	7.592945e-02	9.870828e-01	7.592945e-02	-1.000000e-17	1.000000e-19	7.592944e-21	-7.592945e-06	-7.592945e-06	-7.632783e-21	-4.396176e-04	3.016185e-12	2.956267e-12	-7.592947e-06	4.396176e-04	6.236794e-02
1.100000000000000e+00	1.100000e+00	8.365589e-02	1.087527e+00	8.365589e-02	-1.100000e-17	1.100000e-19	8.365589e-21	-8.365589e-06	-8.365589e-06	-8.326673e-21	-4.416405e-04	3.216224e-12	3.158253e-12	-8.365591e-06	4.416405e-04	1.688225e-03
1.200000000000000e+00	1.200000e+00	9.137967e-02	1.187936e+00	9.137967e-02	-1.200000e-17	1.200000e-19	9.137967e-21	-9.137967e-06	-9.137967e-06	-9.159340e-21	-4.436637e-04	3.416262e-12	3.360088e-12	-9.137970e-06	4.436637e-04	2.485671e-04
1.300000000000000e+00	1.300000e+00	9.910110e-02	1.288314e+00	9.910110e-02	-1.300000e-17	1.300000e-19	9.910110e-21	-9.910110e-06	-9.910110e-06	-9.853229e-21	-4.456874e-04	3.616301e-12	3.561786e-12	-9.910113e-06	4.456874e-04	6.880119e-05
1.400000000000000e+00	1.400000e+00	1.068204e-01	1.388665e+00	1.068204e-01	-1.400000e-17	1.400000e-19	1.068204e-20	-1.068204e-05	-1.068204e-05	-1.068590e-20	-4.477117e-04	3.816340e-12	3.763360e-12	-1.068205e-05	4.477117e-04	-6.500573e-05
1.500000000000000e+00	1.500000e+00	1.145379e-01	1.488992e+00	1.145379e-01	-1.500000e-17	1.500000e-19	1.145379e-20	-1.145379e-05	-1.145379e-05	-1.137979e-20	-4.497364e-04	4.016378e-12	3.964837e-12	-1.145379e-05	4.497364e-04	-1.782699e-04
1.600000000000000e+00	1.600000e+00	1.222536e-01	1.589297e+00	1.222536e-01	-1.600000e-17	1.600000e-19	1.222536e-20	-1.222536e-05	-1.222536e-05	-1.221245e-20	-4.517618e-04	4.216417e-12	4.166209e-12	-1.222536e-05	4.517618e-04	-2.715234e-04
1.700000000000000e+00	1.700000e+00	1.299678e-01	1.689581e+00	1.299678e-01	-1.700000e-17	1.700000e-19	1.299678e-20	-1.299678e-05	-1.299678e-05	-1.304512e-20	-4.537878e-04	4.416456e-12	4.367488e-12	-1.299678e-05	4.537878e-04	-3.447774e-04
1.800000000000000e+00	1.800000e+00	1.376806e-01	1.789848e+00	1.376806e-01	-1.800000e-17	1.800000e-19	1.376806e-20	-1.376806e-05	-1.376806e-05	-1.387779e-20	-4.558144e-04	4.616495e-12	4.568692e-12	-1.376807e-05	4.558144e-04	-3.980322e-04
1.900000000000001e+00	1.900000e+00	1.453921e-01	1.890098e+00	1.453921e-01	-1.900000e-17	1.900000e-19	1.453921e-20	-1.453922e-05	-1.453922e-05	-1.443290e-20	-4.578417e-04	4.816533e-12	4.769829e-12	-1.453922e-05	4.578417e-04	-4.312879e-04
2.000000000000000e+00	2.000000e+00	1.531025e-01	1.990333e+00	1.531025e-01	-2.000000e-17	2.000000e-19	1.531026e-20	-1.531025e-05	-1.531025e-05	-1.526557e-20	-4.598697e-04	5.016572e-12	4.970895e-12	-1.531026e-05	4.598697e-04	-4.445443e-04
2.100000000000001e+00	2.100000e+00	1.608119e-01	2.090554e+00	1.608119e-01	-2.100000e-17	2.100000e-19	1.608119e-20	-1.608119e-05	-1.608119e-05	-1.609823e-20	-4.618985e-04	5.216611e-12	5.171901e-12	-1.608119e-05	4.618985e-04	-4.459016e-04
2.200000000000001e+00	2.200000e+00	1.685203e-01	2.190763e+00	1.685203e-01	-2.200000e-17	2.200000e-19	1.685203e-20	-1.685203e-05	-1.685203e-05	-1.693090e-20	-4.639280e-04	5.416649e-12	5.372847e-12	-1.685203e-05	4.639280e-04	-4.471598e-04
2.300000000000001e+00	2.300000e+00	1.762277e-01	2.290961e+00	1.762277e-01	-2.300000e-17	2.300000e-19	1.762277e-20	-1.762277e-05	-1.762277e-05	-1.748601e-20	-4.659583e-04	5.616688e-12	5.573744e-12	-1.762278e-05	4.659583e-04	-4.484188e-04
2.400000000000001e+00	2.400000e+00	1.839344e-01	2.391147e+00	1.839344e-01	-2.400000e-17	2.400000e-19	1.839344e-20	-1.839344e-05	-1.839344e-05	-1.831868e-20	-4.679893e-04	5.816727e-12	5.774593e-12	-1.839345e-05	4.679893e-04	-4.496787e-04
2.500000000000001e+00	2.500000e+00	1.916403e-01	2.491324e+00	1.916403e-01	-2.500000e-17	2.500000e-19	1.916403e-20	-1.916403e-05	-1.916403e-05	-1.915135e-20	-4.700212e-04	6.016766e-12	5.975397e-12	-1.916404e-05	4.700212e-04	-4.509395e-04
2.600000000000001e+00	2.600000e+00	1.993456e-01	2.591492e+00	1.993456e-01	-2.600000e-17	2.600000e-19	1.993456e-20	-1.993456e-05	-1.993456e-05	-1.998401e-20	-4.720539e-04	6.216804e-12	6.176163e-12	-1.993456e-05	4.720539e-04	-4.522012e-04
2.700000000000001e+00	2.700000e+00	2.070501e-01	2.691652e+00	2.070501e-01	-2.700000e-17	2.700000e-19	2.070501e-20	-2.070501e-05	-2.070501e-05	-2.081668e-20	-4.740874e-04	6.416843e-12	6.376888e-12	-2.070502e-05	4.740874e-04	-4.534637e-04
2.800000000000001e+00	2.800000e+00	2.147541e-01	2.791803e+00	2.147541e-01	-2.800000e-17	2.800000e-19	2.147541e-20	-2.147541e-05	-2.147541e-05	-2.137179e-20	-4.761218e-04	6.616882e-12	6.577581e-12	-2.147542e-05	4.761218e-04	-4.547272e-04
2.900000000000001e+00	2.900000e+00	2.224575e-01	2.891948e+00	2.224575e-01	-2.900000e-17	2.900000e-19	2.224575e-20	-2.224575e-05	-2.224575e-05	-2.220446e-20	-4.781570e-04	6.816920e-12	6.778240e-12	-2.224576e-05	4.781570e-04	-4.559916e-04
3.000000000000001e+00	3.000000e+00	2.301604e-01	2.992085e+00	2.301604e-01	-3.000000e-17	3.000000e-19	2.301604e-20	-2.301604e-05	-2.301604e-05	-2.303713e-20	-4.801930e-04	7.016959e-12	6.978869e-12	-2.301605e-05	4.801930e-04	-4.572568e-04
3.100000000000001e+00	3.100000e+00	2.378628e-01	3.092216e+00	2.378628e-01	-3.100000e-17	3.100000e-19	2.378628e-20	-2.378628e-05	-2.378628e-05	-2.386979e-20	-4.822300e-04	7.216998e-12	7.179467e-12	-2.378629e-05	4.822300e-04	-4.585230e-04
3.200000000000002e+00	3.200000e+00	2.455648e-01	3.192342e+00	2.455648e-01	-3.200000e-17	3.200000e-19	2.455648e-20	-2.455648e-05	-2.455648e-05	-2.442491e-20	-4.842678e-04	7.417037e-12	7.380040e-12	-2.455648e-05	4.842678e-04	-4.597902e-04
3.300000000000002e+00	3.300000e+00	2.532663e-01	3.292462e+00	2.532663e-01	-3.300000e-17	3.300000e-19	2.532663e-20	-2.532663e-05	-2.532663e-05	-2.553513e-20	-4.863065e-04	7.617075e-12	7.580591e-12	-2.532664e-05	4.863065e-04	-4.610582e-04
3.400000000000002e+00	0.000000e+00	0.000000e+00	0.000000e+00	0.000000e+00	0.000000e+00	0.000000e+00	0.000000e+00	0.000000e+00	0.000000e+00	0.000000e+00	0.000000e+00	0.000000e+00	0.000000e+00	0.000000e+00	3.000000e-05	-8.527418e-05
3.500000000000002e+00	0.000000e+00	0.000000e+00	0.000000e+00	0.000000e+00	0.000000e+00	0.000000e+00	0.000000e+00	0.000000e+00	0.000000e+00	0.000000e+00	0.000000e+00	0.000000e+00	0.000000e+00	0.000000e+00	3.000000e-05	-8.689989e-05
3.600000000000002e+00	0.000000e+00	0.000000e+00	0.000000e+00	0.000000e+00	0.000000e+00	0.000000e+00	0.000000e+00	0.000000e+00	0.000000e+00	0.000000e+00	0.000000e+00	0.000000e+00	0.000000e+00	0.000000e+00	3.000000e-05	-8.852560e-05
3.700000000000002e+00	0.000000e+00	0.000000e+00	0.000000e+00	0.000000e+00	0.000000e+00	0.000000e+00	0.000000e+00	0.000000e+00	0.000000e+00	0.000000e+00	0.000000e+00	0.000000e+00	0.000000e+00	0.000000e+00	3.000000e-05	-9.015131e-05
3.800000000000002e+00	3.800000e+00	2.917684e-01	3.792989e+00	2.917684e-01	-3.800000e-17	3.800000e-19	2.917684e-20	-2.917684e-05	-2.917684e-05	-2.942091e-20	-4.965137e-04	8.617269e-12	8.583009e-12	-2.917685e-05	4.965137e-04	-4.674127e-04
3.900000000000002e+00	3.900000e+00	2.994679e-01	3.893082e+00	2.994679e-01	-3.900000e-17	3.900000e-19	2.994678e-20	-2.994679e-05	-2.994679e-05	-2.997602e-20	-4.985579e-04	8.817308e-12	8.783438e-12	-2.994679e-05	4.985579e-04	-4.686865e-04
4.000000000000002e+00	4.000000e+00	3.071671e-01	3.993171e+00	3.071671e-01	-4.000000e-17	4.000000e-19	3.071671e-20	-3.071670e-05	-3.071670e-05	-3.053113e-20	-5.006031e-04	9.017347e-12	8.983848e-12	-3.071671e-05	5.006030e-04	-4.699611e-04
4.100000000000001e+00	4.100000e+00	3.148660e-01	4.093257e+00	3.148660e-01	-4.100000e-17	4.100000e-19	3.148660e-20	-3.148660e-05	-3.148660e-05	-3.164135e-20	-5.026491e-04	9.217386e-12	9.184241e-12	-3.148661e-05	5.026491e-04	-4.712368e-04
4.200000000000001e+00	4.200000e+00	3.225646e-01	4.193340e+00	3.225646e-01	-4.200000e-17	4.200000e-19	3.225646e-20	-3.225646e-05	-3.225646e-05	-3.219647e-20	-5.046961e-04	9.417423e-12	9.384622e-12	-3.225647e-05	5.046961e-04	-4.725135e-04
4.300000000000001e+00	4.300000e+00	3.302631e-01	4.293420e+00	3.302631e-01	-4.300000e-17	4.300000e-19	3.302631e-20	-3.302631e-05	-3.302631e-05	-3.275158e-20	-5.067440e-04	9.617462e-12	9.584988e-12	-3.302632e-05	5.067440e-04	-4.737910e-04
4.400000000000000e+00	4.400000e+00	3.379613e-01	4.393497e+00	3.379613e-01	-4.400000e-17	4.400000e-19	3.379613e-20	-3.379613e-05	-3.379613e-05	-3.386180e-20	-5.087930e-04	9.817501e-12	9.785346e-12	-3.379614e-05	5.087930e-04	-4.750697e-04
4.500000000000000e+00	4.500000e+00	3.456593e-01	4.493571e+00	3.456593e-01	-4.500000e-17	4.500000e-19	3.456593e-20	-3.456593e-05	-3.456593e-05	-3.441691e-20	-5.108428e-04	1.001754e-11	9.985685e-12	-3.456594e-05	5.108428e-04	-4.763493e-04
4.600000000000000e+00	4.600000e+00	3.533571e-01	4.593642e+00	3.533571e-01	-4.600000e-17	4.600000e-19	3.533571e-20	-3.533571e-05	-3.533571e-05	-3.552714e-20	-5.128937e-04	1.021758e-11	1.018601e-11	-3.533572e-05	5.128937e-04	-4.776298e-04
4.699999999999999e+00	4.700000e+00	3.610547e-01	4.693711e+00	3.610547e-01	-4.700000e-17	4.700000e-19	3.610547e-20	-3.610547e-05	-3.610547e-05	-3.608225e-20	-5.149455e-04	1.041762e-11	1.038633e-11	-3.610548e-05	5.149455e-04	-4.789113e-04
4.799999999999999e+00	4.800000e+00	3.687522e-01	4.793778e+00	3.687522e-01	-4.800000e-17	4.800000e-19	3.687521e-20	-3.687522e-05	-3.687522e-05	-3.663736e-20	-5.169982e-04	1.061766e-11	1.058664e-11	-3.687523e-05	5.169982e-04	-4.801938e-04
4.899999999999999e+00	4.900000e+00	3.764494e-01	4.893842e+00	3.764494e-01	-4.900000e-17	4.900000e-19	3.764494e-20	-3.764494e-05	-3.764494e-05	-3.774758e-20	-5.190519e-04	1.081769e-11	1.078694e-11	-3.764495e-05	5.190518e-04	-4.814772e-04
4.999999999999998e+00	5.000000e+00	3.841465e-01	4.993905e+00	3.841465e-01	-5.000000e-17	5.000000e-19	3.841465e-20	-3.841465e-05	-3.841465e-05	-3.830270e-20	-5.211066e-04	1.101773e-11	1.098722e-11	-3.841466e-05	5.211066e-04	-4.827618e-04
5.099999999999998e+00	5.100000e+00	3.918434e-01	5.093965e+00	3.918434e-01	-5.100000e-17	5.100000e-19	3.918434e-20	-3.918434e-05	-3.918434e-05	-3.941292e-20	-5.231623e-04	1.121777e-11	1.118750e-11	-3.918435e-05	5.231623e-04	-4.840473e-04
5.199999999999998e+00	5.200000e+00	3.995402e-01	5.194023e+00	3.995402e-01	-5.200000e-17	5.200000e-19	3.995402e-20	-3.995402e-05	-3.995402e-05	-3.996803e-20	-5.252190e-04	1.141781e-11	1.138776e-11	-3.995403e-05	5.252190e-04	-4.853337e-04
5.299999999999997e+00	5.300000e+00	4.072368e-01	5.294079e+00	4.072368e-01	-5.300000e-17	5.300000e-19	4.072368e-20	-4.072368e-05	-4.072368e-05	-4.052314e-20	-5.272766e-04	1.161785e-11	1.158802e-11	-4.072369e-05	5.272765e-04	-4.866212e-04
5.399999999999997e+00	5.400000e+00	4.149334e-01	5.394134e+00	4.149334e-01	-5.400000e-17	5.400000e-19	4.149333e-20	-4.149333e-05	-4.149333e-05	-4.163336e-20	-5.293352e-04	1.181789e-11	1.178828e-11	-4.149335e-05	5.293352e-04	-4.879097e-04
5.499999999999996e+00	5.500000e+00	4.226297e-01	5.494186e+00	4.226297e-01	-5.500000e-17	5.500000e-19	4.226297e-20	-4.226297e-05	-4.226297e-05	-4.218848e-20	-5.313948e-04	1.201793e-11	1.198852e-11	-4.226298e-05	5.313948e-04	-4.891991e-04
5.599999999999996e+00	0.000000e+00	0.000000e+00	0.000000e+00	0.000000e+00	0.000000e+00	0.000000e+00	0.000000e+00	0.000000e+00	0.000000e+00	0.000000e+00	0.000000e+00	0.000000e+00	0.000000e+00	0.000000e+00	3.000000e-05	-1.210398e-04
5.699999999999996e+00	5.700000e+00	4.380221e-01	5.694287e+00	4.380221e-01	-5.700000e-17	5.700000e-19	4.380221e-20	-4.380221e-05	-4.380221e-05	-4.385381e-20	-5.355169e-04	1.241800e-11	1.238899e-11	-4.380222e-05	5.355169e-04	-4.917810e-04
5.799999999999995e+00	5.800000e+00	4.457181e-01	5.794335e+00	4.457181e-01	-5.800000e-17	5.800000e-19	4.457181e-20	-4.457181e-05	-4.457181e-05	-4.440892e-20	-5.375795e-04	1.261804e-11	1.258921e-11	-4.457182e-05	5.375795e-04	-4.930734e-04
5.899999999999995e+00	5.900000e+00	4.534140e-01	5.894382e+00	4.534140e-01	-5.900000e-17	5.900000e-19	4.534140e-20	-4.534140e-05	-4.534140e-05	-4.551914e-20	-5.396430e-04	1.281808e-11	1.278942e-11	-4.534141e-05	5.396430e-04	-4.943669e-04
5.999999999999995e+00	6.000000e+00	4.611098e-01	5.994427e+00	4.611098e-01	-6.000000e-17	6.000000e-19	4.611098e-20	-4.611098e-05	-4.611098e-05	-4.607425e-20	-5.417076e-04	1.301812e-11	1.298964e-11	-4.611099e-05	5.417076e-04	-4.956613e-04
6.099999999999994e+00	6.100000e+00	4.688055e-01	6.094471e+00	4.688055e-01	-6.100000e-17	6.100000e-19	4.688055e-20	-4.688054e-05	-4.688054e-05	-4.662937e-20	-5.437731e-04	1.321816e-11	1.318984e-11	-4.688056e-05	5.437731e-04	-4.969568e-04
6.199999999999994e+00	6.200000e+00	4.765010e-01	6.194514e+00	4.765010e-01	-6.200000e-17	6.200000e-19	4.765010e-20	-4.765010e-05	-4.765010e-05	-4.773959e-20	-5.458396e-04	1.341820e-11	1.339003e-11	-4.765012e-05	5.458396e-04	-4.982533e-04
6.299999999999994e+00	6.300000e+00	4.841965e-01	6.294555e+00	4.841965e-01	-6.300000e-17	6.300000e-19	4.841965e-20	-4.841965e-05	-4.841965e-05	-4.829470e-20	-5.479071e-04	1.361824e-11	1.359023e-11	-4.841967e-05	5.479071e-04	-4.995508e-04
6.399999999999993e+00	6.400000e+00	4.918920e-01	6.394596e+00	4.918920e-01	-6.400000e-17	6.400000e-19	4.918920e-20	-4.918920e-05	-4.918920e-05	-4.940493e-20	-5.499757e-04	1.381828e-11	1.379041e-11	-4.918921e-05	5.499757e-04	-5.008492e-04
6.499999999999993e+00	6.500000e+00	4.995873e-01	6.494635e+00	4.995873e-01	-6.500000e-17	6.500000e-19	4.995873e-20	-4.995873e-05	-4.995873e-05	-4.996004e-20	-5.520452e-04	1.401832e-11	1.399060e-11	-4.995874e-05	5.520452e-04	-5.021487e-04
6.599999999999993e+00	6.600000e+00	5.072825e-01	6.594673e+00	5.072825e-01	-6.600000e-17	6.600000e-19	5.072825e-20	-5.072825e-05	-5.072825e-05	-5.107026e-20	-5.541157e-04	1.421835e-11	1.419077e-11	-5.072826e-05	5.541157e-04	-5.034492e-04
6.699999999999992e+00	6.700000e+00	5.149776e-01	6.694710e+00	5.149776e-01	-6.700000e-17	6.700000e-19	5.149777e-20	-5.149777e-05	-5.149777e-05	-5.107026e-20	-5.561872e-04	1.441839e-11	1.439094e-11	-5.149778e-05	5.561872e-04	-5.047508e-04
6.799999999999992e+00	6.800000e+00	5.226727e-01	6.794745e+00	5.226727e-01	-6.800000e-17	6.800000e-19	5.226727e-20	-5.226727e-05	-5.226727e-05	-5.218048e-20	-5.582598e-04	1.461843e-11	1.459110e-11	-5.226729e-05	5.582598e-04	-5.060533e-04
6.899999999999991e+00	6.900000e+00	5.303677e-01	6.894781e+00	5.303677e-01	-6.900000e-17	6.900000e-19	5.303677e-20	-5.303677e-05	-5.303677e-05	-5.329070e-20	-5.603334e-04	1.481847e-11	1.479127e-11	-5.303679e-05	5.603333e-04	-5.073568e-04
6.999999999999991e+00	7.000000e+00	5.380627e-01	6.994814e+00	5.380627e-01	-7.000000e-17	7.000000e-19	5.380627e-20	-5.380627e-05	-5.380627e-05	-5.329070e-20	-5.624079e-04	1.501851e-11	1.499143e-11	-5.380628e-05	5.624079e-04	-5.086614e-04
7.099999999999991e+00	7.100000e+00	5.457575e-01	7.094848e+00	5.457575e-01	-7.100000e-17	7.100000e-19	5.457575e-20	-5.457575e-05	-5.457575e-05	-5.440093e-20	-5.644832e-04	1.521855e-11	1.519158e-11	-5.457577e-05	5.644832e-04	-5.099667e-04
7.199999999999990e+00	7.200000e+00	5.534523e-01	7.194880e+00	5.534523e-01	-7.200000e-17	7.200000e-19	5.534523e-20	-5.534523e-05	-5.534523e-05	-5.551115e-20	-5.665600e-04	1.541859e-11	1.539173e-11	-5.534525e-05	5.665600e-04	-5.112736e-04
7.299999999999990e+00	7.300000e+00	5.611470e-01	7.294911e+00	5.611470e-01	-7.300000e-17	7.300000e-19	5.611470e-20	-5.611470e-05	-5.611470e-05	-5.662137e-20	-5.686376e-04	1.561863e-11	1.559188e-11	-5.611472e-05	5.686376e-04	-5.125811e-04
7.399999999999990e+00	7.400000e+00	5.688417e-01	7.394942e+00	5.688417e-01	-7.400000e-17	7.400000e-19	5.688417e-20	-5.688417e-05	-5.688417e-05	-5.662137e-20	-5.707162e-04	1.581866e-11	1.579202e-11	-5.688419e-05	5.707162e-04	-5.138898e-04
7.499999999999989e+00	7.500000e+00	5.765363e-01	7.494972e+00	5.765363e-01	-7.500000e-17	7.500000e-19	5.765363e-20	-5.765363e-05	-5.765363e-05	-5.773160e-20	-5.727958e-04	1.601870e-11	1.599215e-11	-5.765365e-05	5.727958e-04	-5.151994e-04
7.599999999999989e+00	7.600000e+00	5.842308e-01	7.595001e+00	5.842308e-01	-7.600000e-17	7.600000e-19	5.842308e-20	-5.842308e-05	-5.842308e-05	-5.884182e-20	-5.748764e-04	1.621874e-11	1.619229e-11	-5.842310e-05	5.748764e-04	-5.165101e-04
7.699999999999989e+00	7.700000e+00	5.919253e-01	7.695029e+00	5.919253e-01	-7.700000e-17	7.700000e-19	5.919253e-20	-5.919253e-05	-5.919253e-05	-5.884182e-20	-5.769581e-04	1.641878e-11	1.639243e-11	-5.919255e-05	5.769581e-04	-5.178218e-04
7.799999999999988e+00	7.800000e+00	5.996197e-01	7.795057e+00	5.996197e-01	-7.800000e-17	7.800000e-19	5.996197e-20	-5.996197e-05	-5.996197e-05	-5.995204e-20	-5.790407e-04	1.661882e-11	1.659254e-11	-5.996199e-05	5.790407e-04	-5.191345e-04
7.899999999999988e+00	7.900000e+00	6.073141e-01	7.895084e+00	6.073141e-01	-7.900000e-17	7.900000e-19	6.073141e-20	-6.073141e-05	-6.073141e-05	-6.106227e-20	-5.811244e-04	1.681886e-11	1.679268e-11	-6.073143e-05	5.811244e-04	-5.204482e-04
7.999999999999988e+00	8.000000e+00	6.150085e-01	7.995110e+00	6.150085e-01	-8.000000e-17	8.000000e-19	6.150085e-20	-6.150085e-05	-6.150085e-05	-6.106227e-20	-5.832091e-04	1.701890e-11	1.699280e-11	-6.150086e-05	5.832091e-04	-5.217630e-04
8.099999999999987e+00	8.100000e+00	6.227027e-01	8.095136e+00	6.227027e-01	-8.100000e-17	8.100000e-19	6.227027e-20	-6.227027e-05	-6.227027e-05	-6.217249e-20	-5.852942e-04	1.721894e-11	1.719291e-11	-6.227029e-05	5.852941e-04	-5.230781e-04
8.199999999999987e+00	8.200000e+00	6.303970e-01	8.195161e+00	6.303970e-01	-8.200000e-17	8.200000e-19	6.303970e-20	-6.303970e-05	-6.303970e-05	-6.328271e-20	-5.873815e-04	1.741898e-11	1.739304e-11	-6.303971e-05	5.873815e-04	-5.243956e-04
