v_supply	V(v_batteries)	V(vout_reg)	V(n001)	V(n002)	V(n003)	I(C1)	I(C2)	I(C_adc1)	I(R1)	I(R2)	I(R3)	I(V1)	I(V_regulator)	Ix(U1:In+)	Ix(U1:In-)	Ix(U1:OUT)	Ix(U1:V+)	Ix(U1:V-)
0.000000000000000e+00	1.440000e+01	2.936083e-04	1.350598e-03	2.936083e-04	0.000000e+00	1.440000e-18	-1.440000e-16	2.936083e-23	-2.936083e-08	-2.936083e-08	-2.927346e-23	-6.176587e-04	2.781872e-11	-2.781872e-11	-2.781778e-11	-2.933301e-08	6.176587e-04	-6.177903e-04
1.000000000000000e-01	1.440000e+01	2.198975e-02	1.011528e-01	2.198975e-02	1.000000e-01	1.440000e-18	-1.440000e-16	2.198975e-21	-2.198975e-06	-2.198975e-06	-2.185752e-21	-6.650300e-04	2.739999e-11	-2.739999e-11	-2.739999e-11	-2.198947e-06	6.650300e-04	-6.629313e-04
2.000000000000000e-01	1.440000e+01	4.372874e-02	2.011522e-01	4.372874e-02	2.000000e-01	1.440000e-18	-1.440000e-16	4.372873e-21	-4.372874e-06	-4.372874e-06	-4.371503e-21	-6.729740e-04	2.699960e-11	-2.699960e-11	-2.699960e-11	-4.372846e-06	6.729740e-04	-6.687011e-04
3.000000000000000e-01	1.440000e+01	6.546788e-02	3.011523e-01	6.546788e-02	3.000000e-01	1.440000e-18	-1.440000e-16	6.546788e-21	-6.546788e-06	-6.546788e-06	-6.522560e-21	-6.740802e-04	2.659959e-11	-2.659959e-11	-2.659959e-11	-6.546762e-06	6.740802e-04	-6.676334e-04
4.000000000000000e-01	1.440000e+01	8.720703e-02	4.011523e-01	8.720703e-02	4.000000e-01	1.440000e-18	-1.440000e-16	8.720703e-21	-8.720703e-06	-8.720703e-06	-8.743007e-21	-6.751957e-04	2.619959e-11	-2.619959e-11	-2.619959e-11	-8.720676e-06	6.751957e-04	-6.665750e-04
5.000000000000000e-01	1.440000e+01	1.089462e-01	5.011524e-01	1.089462e-01	5.000000e-01	1.440000e-18	-1.440000e-16	1.089462e-20	-1.089462e-05	-1.089462e-05	-1.082467e-20	-6.763305e-04	2.579959e-11	-2.579959e-11	-2.579959e-11	-1.089459e-05	6.763305e-04	-6.655359e-04
6.000000000000000e-01	1.440000e+01	1.306853e-01	6.011524e-01	1.306853e-01	6.000000e-01	1.440000e-18	-1.440000e-16	1.306853e-20	-1.306853e-05	-1.306853e-05	-1.304512e-20	-6.782237e-04	2.539959e-11	-2.539959e-11	-2.539959e-11	-1.306851e-05	6.782237e-04	-6.652551e-04
7.000000000000000e-01	1.440000e+01	1.524244e-01	7.011524e-01	1.524244e-01	7.000000e-01	1.440000e-18	-1.440000e-16	1.524244e-20	-1.524244e-05	-1.524244e-05	-1.526557e-20	-6.803778e-04	2.499959e-11	-2.499959e-11	-2.499959e-11	-1.524242e-05	6.803778e-04	-6.652352e-04
7.999999999999999e-01	1.440000e+01	1.741636e-01	8.011525e-01	1.741636e-01	8.000000e-01	1.440000e-18	-1.440000e-16	1.741636e-20	-1.741636e-05	-1.741636e-05	-1.748601e-20	-6.825321e-04	2.459959e-11	-2.459959e-11	-2.459959e-11	-1.741633e-05	6.825321e-04	-6.652156e-04
8.999999999999999e-01	1.440000e+01	1.959027e-01	9.011525e-01	1.959027e-01	9.000000e-01	1.440000e-18	-1.440000e-16	1.959027e-20	-1.959027e-05	-1.959027e-05	-1.970646e-20	-6.846866e-04	2.419959e-11	-2.419959e-11	-2.419959e-11	-1.959025e-05	6.846866e-04	-6.651962e-04
9.999999999999999e-01	1.440000e+01	2.176419e-01	1.001153e+00	2.176419e-01	1.000000e+00	1.440000e-18	-1.440000e-16	2.176418e-20	-2.176419e-05	-2.176419e-05	-2.164935e-20	-6.868413e-04	2.379959e-11	-2.379959e-11	-2.379959e-11	-2.176416e-05	6.868413e-04	-6.651770e-04
1.100000000000000e+00	1.440000e+01	2.393810e-01	1.101153e+00	2.393810e-01	1.100000e+00	1.440000e-18	-1.440000e-16	2.393810e-20	-2.393810e-05	-2.393810e-05	-2.386979e-20	-6.889963e-04	2.339959e-11	-2.339959e-11	-2.339959e-11	-2.393808e-05	6.889963e-04	-6.651580e-04
1.200000000000000e+00	1.440000e+01	2.611201e-01	1.201153e+00	2.611201e-01	1.200000e+00	1.440000e-18	-1.440000e-16	2.611201e-20	-2.611201e-05	-2.611201e-05	-2.609024e-20	-6.911514e-04	2.299959e-11	-2.299959e-11	-2.299959e-11	-2.611199e-05	6.911514e-04	-6.651392e-04
1.300000000000000e+00	1.440000e+01	2.828593e-01	1.301153e+00	2.828593e-01	1.300000e+00	1.440000e-18	-1.440000e-16	2.828593e-20	-2.828593e-05	-2.828593e-05	-2.831069e-20	-6.933067e-04	2.259959e-11	-2.259959e-11	-2.259959e-11	-2.828590e-05	6.933067e-04	-6.651205e-04
1.400000000000000e+00	1.440000e+01	3.045984e-01	1.401153e+00	3.045984e-01	1.400000e+00	1.440000e-18	-1.440000e-16	3.045984e-20	-3.045984e-05	-3.045984e-05	-3.053113e-20	-6.954622e-04	2.219959e-11	-2.219959e-11	-2.219959e-11	-3.045982e-05	6.954622e-04	-6.651020e-04
1.500000000000000e+00	1.440000e+01	3.263375e-01	1.501153e+00	3.263375e-01	1.500000e+00	1.440000e-18	-1.440000e-16	3.263376e-20	-3.263375e-05	-3.263375e-05	-3.275158e-20	-6.976178e-04	2.179959e-11	-2.179959e-11	-2.179959e-11	-3.263373e-05	6.976178e-04	-6.650838e-04
1.600000000000000e+00	1.440000e+01	3.480767e-01	1.601153e+00	3.480767e-01	1.600000e+00	1.440000e-18	-1.440000e-16	3.480767e-20	-3.480767e-05	-3.480767e-05	-3.497203e-20	-6.997736e-04	2.139959e-11	-2.139959e-11	-2.139959e-11	-3.480765e-05	6.997736e-04	-6.650656e-04
1.700000000000000e+00	1.440000e+01	3.698158e-01	1.701153e+00	3.698158e-01	1.700000e+00	1.440000e-18	-1.440000e-16	3.698158e-20	-3.698158e-05	-3.698158e-05	-3.719247e-20	-7.019296e-04	2.099959e-11	-2.099959e-11	-2.099959e-11	-3.698156e-05	7.019296e-04	-6.650477e-04
1.800000000000000e+00	1.440000e+01	3.915550e-01	1.801153e+00	3.915550e-01	1.800000e+00	1.440000e-18	-1.440000e-16	3.915550e-20	-3.915550e-05	-3.915550e-05	-3.885780e-20	-7.040857e-04	2.059959e-11	-2.059959e-11	-2.059959e-11	-3.915547e-05	7.040857e-04	-6.650299e-04
1.900000000000001e+00	1.440000e+01	4.132941e-01	1.901153e+00	4.132941e-01	1.900000e+00	1.440000e-18	-1.440000e-16	4.132941e-20	-4.132941e-05	-4.132941e-05	-4.107825e-20	-7.062419e-04	2.019959e-11	-2.019959e-11	-2.019959e-11	-4.132939e-05	7.062419e-04	-6.650120e-04
2.000000000000000e+00	1.440000e+01	4.350332e-01	2.001153e+00	4.350332e-01	2.000000e+00	1.440000e-18	-1.440000e-16	4.350333e-20	-4.350333e-05	-4.350333e-05	-4.329870e-20	-7.083984e-04	1.979959e-11	-1.979959e-11	-1.979959e-11	-4.350330e-05	7.083984e-04	-6.649947e-04
2.100000000000001e+00	1.440000e+01	4.567724e-01	2.101153e+00	4.567724e-01	2.100000e+00	1.440000e-18	-1.440000e-16	4.567724e-20	-4.567724e-05	-4.567724e-05	-4.551914e-20	-7.105549e-04	1.939959e-11	-1.939959e-11	-1.939959e-11	-4.567722e-05	7.105549e-04	-6.649773e-04
2.200000000000001e+00	1.440000e+01	4.785115e-01	2.201153e+00	4.785115e-01	2.200000e+00	1.440000e-18	-1.440000e-16	4.785115e-20	-4.785115e-05	-4.785115e-05	-4.773959e-20	-7.127117e-04	1.899958e-11	-1.899958e-11	-1.899959e-11	-4.785113e-05	7.127117e-04	-6.649601e-04
2.300000000000001e+00	1.440000e+01	5.002506e-01	2.301153e+00	5.002506e-01	2.300000e+00	1.440000e-18	-1.440000e-16	5.002507e-20	-5.002506e-05	-5.002506e-05	-4.996004e-20	-7.148685e-04	1.859959e-11	-1.859959e-11	-1.859959e-11	-5.002505e-05	7.148685e-04	-6.649430e-04
2.400000000000001e+00	1.440000e+01	5.219898e-01	2.401153e+00	5.219898e-01	2.400000e+00	1.440000e-18	-1.440000e-16	5.219898e-20	-5.219898e-05	-5.219898e-05	-5.218048e-20	-7.170255e-04	1.819958e-11	-1.819958e-11	-1.819959e-11	-5.219896e-05	7.170255e-04	-6.649261e-04
2.500000000000001e+00	1.440000e+01	5.437289e-01	2.501153e+00	5.437289e-01	2.500000e+00	1.440000e-18	-1.440000e-16	5.437290e-20	-5.437289e-05	-5.437289e-05	-5.440093e-20	-7.191827e-04	1.779958e-11	-1.779958e-11	-1.779959e-11	-5.437287e-05	7.191827e-04	-6.649093e-04
2.600000000000001e+00	1.440000e+01	5.654681e-01	2.601153e+00	5.654681e-01	2.600000e+00	1.440000e-18	-1.440000e-16	5.654681e-20	-5.654681e-05	-5.654681e-05	-5.662137e-20	-7.213399e-04	1.739958e-11	-1.739958e-11	-1.739959e-11	-5.654679e-05	7.213399e-04	-6.648926e-04
2.700000000000001e+00	1.440000e+01	5.872072e-01	2.701153e+00	5.872072e-01	2.700000e+00	1.440000e-18	-1.440000e-16	5.872072e-20	-5.872072e-05	-5.872072e-05	-5.884182e-20	-7.234972e-04	1.699958e-11	-1.699958e-11	-1.699959e-11	-5.872070e-05	7.234972e-04	-6.648760e-04
2.800000000000001e+00	1.440000e+01	6.089463e-01	2.801153e+00	6.089463e-01	2.800000e+00	1.440000e-18	-1.440000e-16	6.089463e-20	-6.089464e-05	-6.089464e-05	-6.106227e-20	-7.256548e-04	1.659958e-11	-1.659958e-11	-1.659958e-11	-6.089462e-05	7.256548e-04	-6.648596e-04
2.900000000000001e+00	1.440000e+01	6.306855e-01	2.901153e+00	6.306855e-01	2.900000e+00	1.440000e-18	-1.440000e-16	6.306855e-20	-6.306855e-05	-6.306855e-05	-6.328271e-20	-7.278124e-04	1.619958e-11	-1.619958e-11	-1.619959e-11	-6.306853e-05	7.278124e-04	-6.648433e-04
3.000000000000001e+00	1.440000e+01	6.524246e-01	3.001153e+00	6.524246e-01	3.000000e+00	1.440000e-18	-1.440000e-16	6.524246e-20	-6.524246e-05	-6.524246e-05	-6.550316e-20	-7.299700e-04	1.579958e-11	-1.579958e-11	-1.579958e-11	-6.524245e-05	7.299700e-04	-6.648269e-04
3.100000000000001e+00	1.440000e+01	6.741638e-01	3.101153e+00	6.741638e-01	3.100000e+00	1.440000e-18	-1.440000e-16	6.741638e-20	-6.741637e-05	-6.741637e-05	-6.772360e-20	-7.321280e-04	1.539958e-11	-1.539958e-11	-1.539958e-11	-6.741636e-05	7.321280e-04	-6.648111e-04
3.200000000000002e+00	1.440000e+01	6.959029e-01	3.201153e+00	6.959029e-01	3.200000e+00	1.440000e-18	-1.440000e-16	6.959029e-20	-6.959029e-05	-6.959029e-05	-6.994405e-20	-7.342859e-04	1.499958e-11	-1.499958e-11	-1.499958e-11	-6.959028e-05	7.342859e-04	-6.647951e-04
3.300000000000002e+00	1.440000e+01	7.176421e-01	3.301153e+00	7.176421e-01	3.300000e+00	1.440000e-18	-1.440000e-16	7.176421e-20	-7.176420e-05	-7.176420e-05	-7.216450e-20	-7.364439e-04	1.459958e-11	-1.459958e-11	-1.459958e-11	-7.176419e-05	7.364439e-04	-6.647791e-04
3.400000000000002e+00	1.440000e+01	7.393812e-01	3.401154e+00	7.393812e-01	3.400000e+00	1.440000e-18	-1.440000e-16	7.393812e-20	-7.393812e-05	-7.393812e-05	-7.438494e-20	-7.386022e-04	1.419958e-11	-1.419958e-11	-1.419958e-11	-7.393811e-05	7.386022e-04	-6.647635e-04
3.500000000000002e+00	1.440000e+01	7.611203e-01	3.501153e+00	7.611203e-01	3.500000e+00	1.440000e-18	-1.440000e-16	7.611204e-20	-7.611203e-05	-7.611203e-05	-7.660539e-20	-7.407605e-04	1.379958e-11	-1.379958e-11	-1.379958e-11	-7.611202e-05	7.407605e-04	-6.647478e-04
3.600000000000002e+00	1.440000e+01	7.828594e-01	3.601154e+00	7.828594e-01	3.600000e+00	1.440000e-18	-1.440000e-16	7.828595e-20	-7.828595e-05	-7.828595e-05	-7.771561e-20	-7.429168e-04	1.339958e-11	-1.339958e-11	-1.339958e-11	-7.828594e-05	7.429168e-04	-6.647293e-04
3.700000000000002e+00	1.440000e+01	8.045986e-01	3.701154e+00	8.045986e-01	3.700000e+00	1.440000e-18	-1.440000e-16	8.045986e-20	-8.045986e-05	-8.045986e-05	-7.993606e-20	-7.450774e-04	1.299958e-11	-1.299958e-11	-1.299958e-11	-8.045985e-05	7.450774e-04	-6.647169e-04
3.800000000000002e+00	1.440000e+01	8.263378e-01	3.801154e+00	8.263378e-01	3.800000e+00	1.440000e-18	-1.440000e-16	8.263377e-20	-8.263378e-05	-8.263378e-05	-8.215650e-20	-7.472360e-04	1.259958e-11	-1.259958e-11	-1.259958e-11	-8.263376e-05	7.472360e-04	-6.647016e-04
3.900000000000002e+00	1.440000e+01	8.480769e-01	3.901154e+00	8.480769e-01	3.900000e+00	1.440000e-18	-1.440000e-16	8.480769e-20	-8.480769e-05	-8.480769e-05	-8.437695e-20	-7.493947e-04	1.219958e-11	-1.219958e-11	-1.219958e-11	-8.480767e-05	7.493947e-04	-6.646863e-04
4.000000000000002e+00	1.440000e+01	8.698161e-01	4.001154e+00	8.698161e-01	4.000000e+00	1.440000e-18	-1.440000e-16	8.698160e-20	-8.698161e-05	-8.698161e-05	-8.659740e-20	-7.515535e-04	1.179958e-11	-1.179958e-11	-1.179958e-11	-8.698159e-05	7.515535e-04	-6.646712e-04
4.100000000000001e+00	1.440000e+01	8.915552e-01	4.101154e+00	8.915552e-01	4.100000e+00	1.440000e-18	-1.440000e-16	8.915552e-20	-8.915552e-05	-8.915552e-05	-8.881784e-20	-7.537124e-04	1.139958e-11	-1.139958e-11	-1.139958e-11	-8.915550e-05	7.537124e-04	-6.646562e-04
4.200000000000001e+00	1.440000e+01	9.132943e-01	4.201154e+00	9.132943e-01	4.200000e+00	1.440000e-18	-1.440000e-16	9.132943e-20	-9.132944e-05	-9.132944e-05	-9.103829e-20	-7.558714e-04	1.099958e-11	-1.099958e-11	-1.099958e-11	-9.132942e-05	7.558714e-04	-6.646412e-04
4.300000000000001e+00	1.440000e+01	9.350334e-01	4.301154e+00	9.350334e-01	4.300000e+00	1.440000e-18	-1.440000e-16	9.350335e-20	-9.350335e-05	-9.350335e-05	-9.325873e-20	-7.580305e-04	1.059958e-11	-1.059958e-11	-1.059958e-11	-9.350334e-05	7.580305e-04	-6.646264e-04
4.400000000000000e+00	1.440000e+01	9.567726e-01	4.401154e+00	9.567726e-01	4.400000e+00	1.440000e-18	-1.440000e-16	9.567726e-20	-9.567726e-05	-9.567726e-05	-9.547918e-20	-7.601896e-04	1.019958e-11	-1.019958e-11	-1.019958e-11	-9.567725e-05	7.601896e-04	-6.646116e-04
4.500000000000000e+00	1.440000e+01	9.785118e-01	4.501154e+00	9.785118e-01	4.500000e+00	1.440000e-18	-1.440000e-16	9.785118e-20	-9.785117e-05	-9.785117e-05	-9.769963e-20	-7.623489e-04	9.799576e-12	-9.799576e-12	-9.799580e-12	-9.785117e-05	7.623489e-04	-6.645969e-04
4.600000000000000e+00	1.440000e+01	1.000251e+00	4.601154e+00	1.000251e+00	4.600000e+00	1.440000e-18	-1.440000e-16	1.000251e-19	-1.000251e-04	-1.000251e-04	-9.992007e-20	-7.645082e-04	9.399576e-12	-9.399576e-12	-9.399579e-12	-1.000251e-04	7.645082e-04	-6.645823e-04
4.699999999999999e+00	1.440000e+01	1.021990e+00	4.701154e+00	1.021990e+00	4.700000e+00	1.440000e-18	-1.440000e-16	1.021990e-19	-1.021990e-04	-1.021990e-04	-1.021405e-19	-7.666675e-04	8.999575e-12	-8.999575e-12	-8.999579e-12	-1.021990e-04	7.666675e-04	-6.645677e-04
4.799999999999999e+00	1.440000e+01	1.043729e+00	4.801154e+00	1.043729e+00	4.800000e+00	1.440000e-18	-1.440000e-16	1.043729e-19	-1.043729e-04	-1.043729e-04	-1.043610e-19	-7.688272e-04	8.599575e-12	-8.599575e-12	-8.599579e-12	-1.043729e-04	7.688272e-04	-6.645534e-04
4.899999999999999e+00	1.440000e+01	1.065468e+00	4.901154e+00	1.065468e+00	4.900000e+00	1.440000e-18	-1.440000e-16	1.065468e-19	-1.065468e-04	-1.065468e-04	-1.065814e-19	-7.709867e-04	8.199575e-12	-8.199575e-12	-8.199578e-12	-1.065468e-04	7.709867e-04	-6.645391e-04
4.999999999999998e+00	1.440000e+01	1.087207e+00	5.001154e+00	1.087207e+00	5.000000e+00	1.440000e-18	-1.440000e-16	1.087207e-19	-1.087207e-04	-1.087207e-04	-1.088019e-19	-7.731463e-04	7.799574e-12	-7.799574e-12	-7.799578e-12	-1.087207e-04	7.731463e-04	-6.645246e-04
5.099999999999998e+00	1.440000e+01	1.108947e+00	5.101154e+00	1.108947e+00	5.100000e+00	1.440000e-18	-1.440000e-16	1.108947e-19	-1.108947e-04	-1.108947e-04	-1.110223e-19	-7.753061e-04	7.399574e-12	-7.399574e-12	-7.399577e-12	-1.108947e-04	7.753061e-04	-6.645106e-04
5.199999999999998e+00	1.440000e+01	1.130686e+00	5.201154e+00	1.130686e+00	5.200000e+00	1.440000e-18	-1.440000e-16	1.130686e-19	-1.130686e-04	-1.130686e-04	-1.132427e-19	-7.774659e-04	6.999573e-12	-6.999573e-12	-6.999577e-12	-1.130686e-04	7.774659e-04	-6.644964e-04
5.299999999999997e+00	1.440000e+01	1.152425e+00	5.301155e+00	1.152425e+00	5.300000e+00	1.440000e-18	-1.440000e-16	1.152425e-19	-1.152425e-04	-1.152425e-04	-1.154632e-19	-7.796258e-04	6.599573e-12	-6.599573e-12	-6.599577e-12	-1.152425e-04	7.796258e-04	-6.644824e-04
5.399999999999997e+00	1.440000e+01	1.174164e+00	5.401155e+00	1.174164e+00	5.400000e+00	1.440000e-18	-1.440000e-16	1.174164e-19	-1.174164e-04	-1.174164e-04	-1.176836e-19	-7.817858e-04	6.199573e-12	-6.199573e-12	-6.199576e-12	-1.174164e-04	7.817858e-04	-6.644684e-04
5.499999999999996e+00	1.440000e+01	1.195903e+00	5.501154e+00	1.195903e+00	5.500000e+00	1.440000e-18	-1.440000e-16	1.195903e-19	-1.195903e-04	-1.195903e-04	-1.199041e-19	-7.839439e-04	5.799572e-12	-5.799572e-12	-5.799576e-12	-1.195903e-04	7.839439e-04	-6.644517e-04
5.599999999999996e+00	1.440000e+01	1.217642e+00	5.601154e+00	1.217642e+00	5.600000e+00	1.440000e-18	-1.440000e-16	1.217642e-19	-1.217642e-04	-1.217642e-04	-1.221245e-19	-7.861059e-04	5.399572e-12	-5.399572e-12	-5.399575e-12	-1.217642e-04	7.861059e-04	-6.644407e-04
5.699999999999996e+00	1.440000e+01	1.239381e+00	5.701155e+00	1.239381e+00	5.700000e+00	1.440000e-18	-1.440000e-16	1.239381e-19	-1.239381e-04	-1.239381e-04	-1.243450e-19	-7.882661e-04	4.999572e-12	-4.999572e-12	-4.999575e-12	-1.239381e-04	7.882661e-04	-6.644270e-04
5.799999999999995e+00	1.440000e+01	1.261121e+00	5.801155e+00	1.261121e+00	5.800000e+00	1.440000e-18	-1.440000e-16	1.261121e-19	-1.261121e-04	-1.261121e-04	-1.265654e-19	-7.904264e-04	4.599571e-12	-4.599571e-12	-4.599575e-12	-1.261120e-04	7.904264e-04	-6.644133e-04
5.899999999999995e+00	1.440000e+01	1.282860e+00	5.901155e+00	1.282860e+00	5.900000e+00	1.440000e-18	-1.440000e-16	1.282860e-19	-1.282860e-04	-1.282860e-04	-1.287859e-19	-7.925869e-04	4.199570e-12	-4.199570e-12	-4.199575e-12	-1.282860e-04	7.925869e-04	-6.643999e-04
5.999999999999995e+00	1.440000e+01	1.304599e+00	6.001155e+00	1.304599e+00	6.000000e+00	1.440000e-18	-1.440000e-16	1.304599e-19	-1.304599e-04	-1.304599e-04	-1.310063e-19	-7.947473e-04	3.799570e-12	-3.799570e-12	-3.799574e-12	-1.304599e-04	7.947473e-04	-6.643864e-04
